 
19:13:53:0600 Rx 1 0x18DA21F1 x 8 04 31 01 F5 18 00 00 00    (F500 – F5FF ->OBDDataIdentifier)
19:13:53:0605 Rx 1 0x18DAF121 x 8 04 71 01 F5 18 91 00 92 
19:13:53:0706 Rx 1 0x18DA21F1 x 8 04 31 01 F5 18 00 00 00 
19:13:53:0711 Rx 1 0x18DAF121 x 8 04 71 01 F5 18 91 00 92 
19:13:53:0812 Rx 1 0x18DA21F1 x 8 04 31 01 F5 18 00 00 00 
19:13:53:0818 Rx 1 0x18DAF121 x 8 04 71 01 F5 18 91 00 92 
19:13:53:0919 Rx 1 0x18DA21F1 x 8 04 31 01 F5 18 00 00 00 
19:13:53:0925 Rx 1 0x18DAF121 x 8 04 71 01 F5 18 91 00 92 

19:13:53:2154 Rx 1 0x18DA21F1 x 8 02 10 01 00 00 00 00 00 
19:13:53:2160 Rx 1 0x18DAF121 x 8 06 50 01 00 0A 01 F4 92 

19:13:53:3287 Rx 1 0x18DA21F1 x 8 02 10 03 00 00 00 00 00 
19:13:53:3292 Rx 1 0x18DAF121 x 8 06 50 03 00 0A 01 F4 92 

19:13:53:4431 Rx 1 0x18DA21F1 x 8 04 31 01 02 03 00 00 00 
19:13:53:4437 Rx 1 0x18DAF121 x 8 04 71 01 02 03 01 F4 92
 
19:13:53:5557 Rx 1 0x18DA21F1 x 8 05 85 02 FF FF FF 00 00 
19:13:53:5562 Rx 1 0x18DAF121 x 8 02 C5 02 02 03 01 F4 92 


19:13:53:6679 Rx 1 0x18DA21F1 x 8 03 28 01 01 00 00 00 00 
19:13:53:6685 Rx 1 0x18DAF121 x 8 02 68 01 02 03 01 F4 92 


19:13:53:7804 Rx 1 0x18DA21F1 x 8 02 10 02 00 00 00 00 00 
19:13:53:7809 Rx 1 0x18DAF121 x 8 03 7F 10 78 00 00 00 00 
19:13:53:7812 Rx 1 0x18DAF121 x 8 06 50 02 00 0A 01 F4 00 

19:13:53:9156 Rx 1 0x18DA21F1 x 8 02 27 11 00 00 00 00 00 
19:13:53:9161 Rx 1 0x18DAF121 x 8 06 67 11 E1 E6 95 13 00 

19:13:54:1867 Rx 1 0x18DA21F1 x 8 06 27 12 1E 19 6A EC 00 
19:13:54:1873 Rx 1 0x18DAF121 x 8 03 7F 27 78 00 00 00 00 
19:13:54:1876 Rx 1 0x18DAF121 x 8 02 67 12 78 00 00 00 00 


19:13:54:3317 Rx 1 0x18DA21F1 x 8 10 0C 2E F1 5A 02 04 16 
19:13:54:3321 Rx 1 0x18DAF121 x 8 30 00 00 00 00 00 00 00 
19:13:54:3325 Rx 1 0x18DA21F1 x 8 21 01 02 03 04 05 06 00 
19:13:54:3331 Rx 1 0x18DAF121 x 8 03 6E F1 5A 00 00 00 00

 
19:13:54:6540 Rx 1 0x18DA21F1 x 8 10 0B 34 00 44 00 00 00 
19:13:54:6545 Rx 1 0x18DAF121 x 8 30 00 00 00 00 00 00 00 
19:13:54:6551 Rx 1 0x18DA21F1 x 8 21 00 00 00 07 A2 00 00 
19:13:54:6559 Rx 1 0x18DAF121 x 8 04 74 20 04 E2 00 00 00 


19:13:54:9409 Rx 1 0x18DA21F1 x 8 14 E2 36 01 00 00 04 12 
19:13:54:9412 Rx 1 0x18DAF121 x 8 30 00 00 00 00 00 00 00 
19:13:54:9417 Rx 1 0x18DA21F1 x 8 21 02 EA 02 E3 03 22 02 
19:13:54:9420 Rx 1 0x18DA21F1 x 8 22 B4 6C AD B7 45 ED E0 
19:13:54:9423 Rx 1 0x18DA21F1 x 8 23 2C 19 EA 01 06 C6 30 
19:13:54:9426 Rx 1 0x18DA21F1 x 8 24 6B 40 EE E0 18 ED 80 
19:13:54:9429 Rx 1 0x18DA21F1 x 8 25 ED E8 1A 34 B7 51 EE 
19:13:54:9432 Rx 1 0x18DA21F1 x 8 26 82 6B E0 1D B7 64 31 
19:13:54:9435 Rx 1 0x18DA21F1 x 8 27 36 35 33 31 87 B7 61 
19:13:54:9438 Rx 1 0x18DA21F1 x 8 28 6B E0 24 E6 E0 1B 6B 
19:13:54:9440 Rx 1 0x18DA21F1 x 8 29 E0 1E ED E0 29 E6 41 
19:13:54:9443 Rx 1 0x18DA21F1 x 8 2A 6B E0 1F E6 40 6B E0 
19:13:54:9446 Rx 1 0x18DA21F1 x 8 2B 25 E6 43 6B E0 20 E6 
19:13:54:9449 Rx 1 0x18DA21F1 x 8 2C 42 6B E0 26 E6 45 6B 
19:13:54:9452 Rx 1 0x18DA21F1 x 8 2D E0 21 E6 44 6B E0 27 
19:13:54:9455 Rx 1 0x18DA21F1 x 8 2E E6 47 6B E0 22 E6 46 
19:13:54:9458 Rx 1 0x18DA21F1 x 8 2F 6B E0 28 69 82 20 37 
19:13:54:9461 Rx 1 0x18DA21F1 x 8 20 EE 80 ED E0 2C 19 EA 
19:13:54:9464 Rx 1 0x18DA21F1 x 8 21 01 02 E6 82 6B 40 ED 
19:13:54:9467 Rx 1 0x18DA21F1 x 8 22 E0 2C 19 EA 01 0B 87 
19:13:54:9470 Rx 1 0x18DA21F1 x 8 23 3B E3 82 B7 45 E6 E0 
19:13:54:9473 Rx 1 0x18DA21F1 x 8 24 1D 6B 40 EE 82 ED E0 
19:13:54:9476 Rx 1 0x18DA21F1 x 8 25 2C 19 EA 01 0A B7 54 
19:13:54:9478 Rx 1 0x18DA21F1 x 8 26 E3 80 B7 45 E6 E0 23 
19:13:54:9481 Rx 1 0x18DA21F1 x 8 27 6B 40 62 84 1B 82 E6 
19:13:54:9484 Rx 1 0x18DA21F1 x 8 28 82 87 EE 80 B7 46 E6 
19:13:54:9487 Rx 1 0x18DA21F1 x 8 29 E0 1C 3B AD B1 2D BA 
19:13:54:9490 Rx 1 0x18DA21F1 x 8 2A ED E0 2C 19 EA 01 06 
19:13:54:9493 Rx 1 0x18DA21F1 x 8 2B E6 40 C4 80 87 1B 83 
19:13:54:9496 Rx 1 0x18DA21F1 x 8 2C 3D 1B 98 3B CC 02 0A 
19:13:54:9499 Rx 1 0x18DA21F1 x 8 2D EE 80 6B E0 23 6A E0 
19:13:54:9502 Rx 1 0x18DA21F1 x 8 2E 1C 19 82 6D E0 29 B7 
19:13:54:9505 Rx 1 0x18DA21F1 x 8 2F 54 15 FA FF 31 87 04 
19:13:54:9508 Rx 1 0x18DA21F1 x 8 20 64 06 EE 80 C6 49 20 
19:13:54:9511 Rx 1 0x18DA21F1 x 8 21 39 EE 80 ED E0 2C 19 
19:13:54:9513 Rx 1 0x18DA21F1 x 8 22 EA 01 06 C6 80 6B 40 
19:13:54:9516 Rx 1 0x18DA21F1 x 8 23 B7 54 15 FA 01 9D EE 
19:13:54:9519 Rx 1 0x18DA21F1 x 8 24 80 ED E0 2C 19 EA 01 
19:13:54:9522 Rx 1 0x18DA21F1 x 8 25 06 E6 40 C4 10 27 08 
19:13:54:9525 Rx 1 0x18DA21F1 x 8 26 C6 10 6B 40 C6 47 20 
19:13:54:9528 Rx 1 0x18DA21F1 x 8 27 0E E6 40 C4 20 27 07 
19:13:54:9531 Rx 1 0x18DA21F1 x 8 28 C6 20 6B 40 C6 48 21 
19:13:54:9534 Rx 1 0x18DA21F1 x 8 29 C7 87 6C 04 1B 8A 3D 
19:13:54:9537 Rx 1 0x18DA21F1 x 8 2A 6C AA B7 45 ED 08 6D 
19:13:54:9540 Rx 1 0x18DA21F1 x 8 2B E0 18 ED 0A 6D E0 1A 
19:13:54:9543 Rx 1 0x18DA21F1 x 8 2C ED E0 10 6D E0 29 ED 
19:13:54:9545 Rx 1 0x18DA21F1 x 8 2D 0C 6D 82 EC 0E 6C 84 
19:13:54:9548 Rx 1 0x18DA21F1 x 8 2E 20 73 EE 80 ED E0 2C 
19:13:54:9551 Rx 1 0x18DA21F1 x 8 2F 19 E8 15 35 ED E0 1A 
19:13:54:9554 Rx 1 0x18DA21F1 x 8 20 EE E0 18 1A E1 C0 C6 
19:13:54:9557 Rx 1 0x18DA21F1 x 8 21 0E 15 FA 03 31 30 6B 
19:13:54:9560 Rx 1 0x18DA21F1 x 8 22 00 EE 80 EC E0 1A 84 
19:13:54:9566 Rx 1 0x18DA21F1 x 8 23 3F C3 80 00 B7 46 EC 
19:13:54:9569 Rx 1 0x18DA21F1 x 8 24 40 6C E0 16 ED E0 12 
19:13:54:9572 Rx 1 0x18DA21F1 x 8 25 15 40 EE 80 ED E0 29 
19:13:54:9574 Rx 1 0x18DA21F1 x 8 26 EC E0 16 AC 40 27 0C 
19:13:54:9577 Rx 1 0x18DA21F1 x 8 27 EC 40 6C E0 14 C6 62 
19:13:54:9580 Rx 1 0x18DA21F1 x 8 28 87 6C 04 20 3D EC E0 
19:13:54:9583 Rx 1 0x18DA21F1 x 8 29 1A C3 00 02 6C E0 1A 
19:13:54:9586 Rx 1 0x18DA21F1 x 8 2A EC E0 18 C9 00 89 00 
19:13:54:9589 Rx 1 0x18DA21F1 x 8 2B 6C E0 18 ED E0 29 19 
19:13:54:9592 Rx 1 0x18DA21F1 x 8 2C 42 6D E0 29 EC 84 83 
19:13:54:9595 Rx 1 0x18DA21F1 x 8 2D 00 02 6C 84 EC 82 C2 
19:13:54:9598 Rx 1 0x18DA21F1 x 8 2E 00 82 00 6C 82 19 82 
19:13:54:9601 Rx 1 0x18DA21F1 x 8 2F CE 00 00 B7 54 15 FA 
19:13:54:9604 Rx 1 0x18DA21F1 x 8 20 03 50 18 25 FF 7E ED 
19:13:54:9607 Rx 1 0x18DA21F1 x 8 21 80 6C 44 1B 86 3D 6C 
19:13:54:9609 Rx 1 0x18DA21F1 x 8 22 AA B7 45 ED E0 10 6D 
19:13:54:9612 Rx 1 0x18DA21F1 x 8 23 E0 29 ED 08 6D E0 18 
19:13:54:9615 Rx 1 0x18DA21F1 x 8 24 ED 0A 6D E0 1A ED 0C 
19:13:54:9618 Rx 1 0x18DA21F1 x 8 25 6D 82 EC 0E 6C 84 20 
19:13:54:9621 Rx 1 0x18DA21F1 x 8 26 5D EE 80 C6 06 6B E0 
19:13:54:9624 Rx 1 0x18DA21F1 x 8 27 23 6B E0 1C B7 54 15 
19:13:54:9627 Rx 1 0x18DA21F1 x 8 28 FA FE 14 87 04 64 08 
19:13:54:9630 Rx 1 0x18DA21F1 x 8 29 EE 80 C6 69 6C 04 20 
19:13:54:9633 Rx 1 0x18DA21F1 x 8 2A 4E EC 80 15 FA 00 4B 
19:13:54:9636 Rx 1 0x18DA21F1 x 8 2B EE 80 6C 04 27 0B ED 
19:13:54:9639 Rx 1 0x18DA21F1 x 8 2C E0 29 E6 40 87 6C E0 
19:13:54:9644 Rx 1 0x18DA21F1 x 8 2D 14 20 37 EC E0 1A C3 
19:13:54:9650 Rx 1 0x18DA21F1 x 8 2E 00 08 6C E0 1A EC E0 
19:13:54:9655 Rx 1 0x18DA21F1 x 8 2F 18 C9 00 89 00 6C E0 
19:13:54:9661 Rx 1 0x18DA21F1 x 8 20 18 ED E0 29 19 48 6D 
19:13:54:9666 Rx 1 0x18DA21F1 x 8 21 E0 29 EC 84 83 00 08 
19:13:54:9669 Rx 1 0x18DA21F1 x 8 22 6C 84 EC 82 C2 00 82 
19:13:54:9672 Rx 1 0x18DA21F1 x 8 23 00 6C 82 19 82 CE 00 
19:13:54:9675 Rx 1 0x18DA21F1 x 8 24 00 B7 54 15 FA 02 BF 
19:13:54:9678 Rx 1 0x18DA21F1 x 8 25 26 96 1B 86 3D 6C AC 
19:13:54:9681 Rx 1 0x18DA21F1 x 8 26 B7 45 ED E0 2C 19 EA 
19:13:54:9684 Rx 1 0x18DA21F1 x 8 27 01 06 C6 80 6B 40 B7 
19:13:54:9687 Rx 1 0x18DA21F1 x 8 28 54 15 FA 00 2B EE 80 
19:13:54:9690 Rx 1 0x18DA21F1 x 8 29 ED E0 2C 19 EA 01 06 
19:13:54:9693 Rx 1 0x18DA21F1 x 8 2A E6 40 C4 10 27 08 C6 
19:13:54:9696 Rx 1 0x18DA21F1 x 8 2B 10 6B 40 C6 67 20 0E 
19:13:54:9699 Rx 1 0x18DA21F1 x 8 2C E6 40 C4 20 27 07 C6 
19:13:54:9701 Rx 1 0x18DA21F1 x 8 2D 20 6B 40 C6 68 21 C7 
19:13:54:9704 Rx 1 0x18DA21F1 x 8 2E 87 6C 82 1B 84 3D 3B 
19:13:54:9707 Rx 1 0x18DA21F1 x 8 2F EE 80 ED E0 12 15 40 
19:13:54:9710 Rx 1 0x18DA21F1 x 8 20 EE 80 ED E0 2C 19 EA 
19:13:54:9713 Rx 1 0x18DA21F1 x 8 21 01 06 E6 40 C4 30 26 
19:13:54:9716 Rx 1 0x18DA21F1 x 8 22 06 E6 40 C4 80 27 E4 
19:13:54:9719 Rx 1 0x18DA21F1 x 8 23 3A 3D 6C AD B7 45 ED 
19:13:54:9722 Rx 1 0x18DA21F1 x 8 24 E0 2C 19 E8 15 E6 40 
19:13:54:9725 Rx 1 0x18DA21F1 x 8 25 6B 82 B7 54 15 FA FF 
19:13:54:9728 Rx 1 0x18DA21F1 x 8 26 02 EE 80 EC 04 26 06 
19:13:54:9731 Rx 1 0x18DA21F1 x 8 27 B7 54 15 FA FE 4F EE 
19:13:54:9734 Rx 1 0x18DA21F1 x 8 28 80 ED E0 2C 19 E8 15 
19:13:54:9736 Rx 1 0x18DA21F1 x 8 29 E6 82 6B 40 1B 83 3D 
19:13:54:9739 Rx 1 0x18DA21F1 x 8 2A B7 45 69 05 69 04 3D 
19:13:54:9742 Rx 1 0x18DA21F1 x 8 2B 3B CC 02 01 58 57 EE 
19:13:54:9745 Rx 1 0x18DA21F1 x 8 2C 80 6C 01 69 00 C7 87 
19:13:54:9748 Rx 1 0x18DA21F1 x 8 2D 6C 04 ED E0 2C 19 EA 
19:13:54:9751 Rx 1 0x18DA21F1 x 8 2E 01 00 E6 E0 2B 6B 40 
19:13:54:9754 Rx 1 0x18DA21F1 x 8 2F ED E0 2C 19 EA 01 00 
19:13:54:9757 Rx 1 0x18DA21F1 x 8 20 E6 40 B7 46 E6 E0 2B 
19:13:54:9760 Rx 1 0x18DA21F1 x 8 21 CA 80 3B AD B1 27 05 
19:13:54:9763 Rx 1 0x18DA21F1 x 8 22 C6 08 87 6C 04 3A 3D 
19:13:54:9765 Rx 1 0x18DA21F1 x 8 23 6C AA B7 45 ED 0C 6D 
19:13:54:9768 Rx 1 0x18DA21F1 x 8 24 82 ED 0E 6D 84 69 05 
19:13:54:9771 Rx 1 0x18DA21F1 x 8 25 69 04 ED 08 6D E0 18 
19:13:54:9774 Rx 1 0x18DA21F1 x 8 26 ED 0A 6D E0 1A 20 2E 
19:13:54:9777 Rx 1 0x18DA21F1 x 8 27 EC 80 15 FA FD 7E EE 
19:13:54:9780 Rx 1 0x18DA21F1 x 8 28 80 EC E0 2E 3B E3 E0 
19:13:54:9783 Rx 1 0x18DA21F1 x 8 29 1A 6C E0 1A CC 00 00 
19:13:54:9786 Rx 1 0x18DA21F1 x 8 2A E9 E0 19 A9 E0 18 6C 
19:13:54:9789 Rx 1 0x18DA21F1 x 8 2B E0 18 EC 86 A3 80 6C 
19:13:54:9792 Rx 1 0x18DA21F1 x 8 2C 86 EC 84 C2 00 82 00 
19:13:54:9795 Rx 1 0x18DA21F1 x 8 2D 6C 84 1B 82 19 82 CE 
19:13:54:9798 Rx 1 0x18DA21F1 x 8 2E 00 00 B7 54 15 FA 01 
19:13:54:9801 Rx 1 0x18DA21F1 x 8 2F 98 24 06 ED 80 EC 44 
19:13:54:9804 Rx 1 0x18DA21F1 x 8 20 27 BF 1B 86 3D 01 02 
19:13:54:9807 Rx 1 0x18DA21F1 x 8 21 04 08 10 20 40 80 00 
19:13:54:9810 Rx 1 0x18DA21F1 x 8 22 01 00 02 00 04 00 08 
19:13:54:9813 Rx 1 0x18DA21F1 x 8 23 00 10 00 20 00 40 00 
19:13:54:9816 Rx 1 0x18DA21F1 x 8 24 80 01 00 02 00 04 00 
19:13:54:9819 Rx 1 0x18DA21F1 x 8 25 08 00 10 00 20 00 40 
19:13:54:9822 Rx 1 0x18DA21F1 x 8 26 00 80 00 00 00 00 01 
19:13:54:9825 Rx 1 0x18DA21F1 x 8 27 00 00 00 02 00 00 00 
19:13:54:9828 Rx 1 0x18DA21F1 x 8 28 04 00 00 00 08 00 00 
19:13:54:9831 Rx 1 0x18DA21F1 x 8 29 00 10 00 00 00 20 00 
19:13:54:9834 Rx 1 0x18DA21F1 x 8 2A 00 00 40 00 00 00 80 
19:13:54:9837 Rx 1 0x18DA21F1 x 8 2B 00 00 01 00 00 00 02 
19:13:54:9840 Rx 1 0x18DA21F1 x 8 2C 00 00 00 04 00 00 00 
19:13:54:9843 Rx 1 0x18DA21F1 x 8 2D 08 00 00 00 10 00 00 
19:13:54:9846 Rx 1 0x18DA21F1 x 8 2E 00 20 00 00 00 40 00 
19:13:54:9849 Rx 1 0x18DA21F1 x 8 2F 00 00 80 00 00 01 00 
19:13:54:9852 Rx 1 0x18DA21F1 x 8 20 00 00 02 00 00 00 04 
19:13:54:9855 Rx 1 0x18DA21F1 x 8 21 00 00 00 08 00 00 00 
19:13:54:9858 Rx 1 0x18DA21F1 x 8 22 10 00 00 00 20 00 00 
19:13:54:9861 Rx 1 0x18DA21F1 x 8 23 00 40 00 00 00 80 00 
19:13:54:9864 Rx 1 0x18DA21F1 x 8 24 00 01 00 00 00 02 00 
19:13:54:9867 Rx 1 0x18DA21F1 x 8 25 00 00 04 00 00 00 08 
19:13:54:9871 Rx 1 0x18DA21F1 x 8 26 00 00 00 10 00 00 00 
19:13:54:9874 Rx 1 0x18DA21F1 x 8 27 20 00 00 00 40 00 00 
19:13:54:9877 Rx 1 0x18DA21F1 x 8 28 00 80 00 00 00 97 27 
19:13:54:9880 Rx 1 0x18DA21F1 x 8 29 04 58 04 30 FC 3D 97 
19:13:54:9883 Rx 1 0x18DA21F1 x 8 2A 27 04 57 04 30 FC 3D 
19:13:54:9885 Rx 1 0x18DA21F1 x 8 2B 97 27 04 54 04 30 FC 
19:13:54:9888 Rx 1 0x18DA21F1 x 8 2C 3D 34 B7 85 87 18 10 
19:13:54:9902 Rx 1 0x18DA21F1 x 8 2D B7 50 30 3D 34 B7 05 
19:13:54:9905 Rx 1 0x18DA21F1 x 8 2E B7 14 18 15 B7 50 30 
19:13:54:9908 Rx 1 0x18DA21F1 x 8 2F 3D 87 D7 B7 C6 27 04 
19:13:54:9911 Rx 1 0x18DA21F1 x 8 20 59 04 36 FC 3D 87 D7 
19:13:54:9914 Rx 1 0x18DA21F1 x 8 21 B7 C6 27 04 49 04 36 
19:13:54:9917 Rx 1 0x18DA21F1 x 8 22 FC 3D 87 D7 B7 C6 27 
19:13:54:9920 Rx 1 0x18DA21F1 x 8 23 05 47 56 04 36 FB 3D 
19:13:54:9923 Rx 1 0x18DA21F1 x 8 24 87 D7 B7 C6 27 0A 59 
19:13:54:9925 Rx 1 0x18DA21F1 x 8 25 B7 C5 55 45 B7 C5 04 
19:13:54:9928 Rx 1 0x18DA21F1 x 8 26 36 F6 3D 87 D7 B7 C6 
19:13:54:9931 Rx 1 0x18DA21F1 x 8 27 27 0A B7 C5 49 B7 C5 
19:13:54:9934 Rx 1 0x18DA21F1 x 8 28 46 56 04 36 F6 3D 87 
19:13:54:9937 Rx 1 0x18DA21F1 x 8 29 D7 B7 C6 27 0B B7 C5 
19:13:54:9940 Rx 1 0x18DA21F1 x 8 2A 47 56 B7 C5 46 56 04 
19:13:54:9943 Rx 1 0x18DA21F1 x 8 2B 36 F5 3D E3 84 B7 C5 
19:13:54:9946 Rx 1 0x18DA21F1 x 8 2C E9 83 A9 82 B7 C5 ED 
19:13:54:9949 Rx 1 0x18DA21F1 x 8 2D B5 05 40 A3 84 B7 C5 
19:13:54:9952 Rx 1 0x18DA21F1 x 8 2E E2 83 A2 82 B7 C5 ED 
19:13:54:9955 Rx 1 0x18DA21F1 x 8 2F B5 05 40 31 A4 82 E4 
19:13:54:9958 Rx 1 0x18DA21F1 x 8 20 83 B7 C5 A4 81 E4 B3 
19:13:54:9961 Rx 1 0x18DA21F1 x 8 21 B7 C5 05 40 31 AA 82 
19:13:54:9964 Rx 1 0x18DA21F1 x 8 22 EA 83 B7 C5 AA 00 00 

19:13:54:9975 Rx 1 0x18DAF121 x 8 02 76 01 00 00 00 00 00 



19:13:55:2490 Rx 1 0x18DA21F1 x 8 12 C4 36 02 81 EA B3 B7 
19:13:55:2494 Rx 1 0x18DAF121 x 8 30 00 00 00 00 00 00 00 
19:13:55:2498 Rx 1 0x18DA21F1 x 8 21 C5 05 40 31 AA 82 EA 
19:13:55:2501 Rx 1 0x18DA21F1 x 8 22 83 B7 C5 AA 81 EA B3 
19:13:55:2504 Rx 1 0x18DA21F1 x 8 23 B7 C5 05 40 AC 84 27 
19:13:55:2507 Rx 1 0x18DA21F1 x 8 24 0E 34 B7 C5 E2 85 A2 
19:13:55:2510 Rx 1 0x18DA21F1 x 8 25 84 B7 C5 10 FB 30 20 
19:13:55:2513 Rx 1 0x18DA21F1 x 8 26 02 AE 82 31 1B 84 05 
19:13:55:2516 Rx 1 0x18DA21F1 x 8 27 40 AC 42 27 0E 34 B7 
19:13:55:2519 Rx 1 0x18DA21F1 x 8 28 C5 E2 41 A2 40 B7 C5 
19:13:55:2522 Rx 1 0x18DA21F1 x 8 29 10 FB 30 20 02 AE 40 
19:13:55:2524 Rx 1 0x18DA21F1 x 8 2A 3D 3B 34 EC 02 EE 00 
19:13:55:2527 Rx 1 0x18DA21F1 x 8 2B 15 FA FF E1 30 3A 3D 
19:13:55:2530 Rx 1 0x18DA21F1 x 8 2C 41 51 B7 C5 41 51 B7 
19:13:55:2533 Rx 1 0x18DA21F1 x 8 2D C5 04 A4 01 08 3D 41 
19:13:55:2536 Rx 1 0x18DA21F1 x 8 2E 51 B7 C5 41 51 B7 C5 
19:13:55:2539 Rx 1 0x18DA21F1 x 8 2F 3D 04 A4 01 08 3D 04 
19:13:55:2542 Rx 1 0x18DA21F1 x 8 20 64 01 09 83 00 01 3D 
19:13:55:2545 Rx 1 0x18DA21F1 x 8 21 3B 34 1B 9C EC 8C ED 
19:13:55:2548 Rx 1 0x18DA21F1 x 8 22 86 13 6C 82 6D 80 EC 
19:13:55:2551 Rx 1 0x18DA21F1 x 8 23 86 ED 8A 13 E3 80 6C 
19:13:55:2556 Rx 1 0x18DA21F1 x 8 24 80 EC 84 ED 8C 13 E3 
19:13:55:2562 Rx 1 0x18DA21F1 x 8 25 80 B7 45 EC 82 1B 88 
19:13:55:2567 Rx 1 0x18DA21F1 x 8 26 ED B5 05 40 35 B7 C5 
19:13:55:2573 Rx 1 0x18DA21F1 x 8 27 13 B7 D4 31 13 B7 E4 
19:13:55:2578 Rx 1 0x18DA21F1 x 8 28 1A E6 B7 E4 3D 35 B7 
19:13:55:2581 Rx 1 0x18DA21F1 x 8 29 C5 18 13 B7 D4 ED B1 
19:13:55:2584 Rx 1 0x18DA21F1 x 8 2A 2A 0E 03 B7 C6 41 51 
19:13:55:2587 Rx 1 0x18DA21F1 x 8 2B 13 B7 E5 15 FA FF 90 
19:13:55:2590 Rx 1 0x18DA21F1 x 8 2C 20 01 13 B7 E4 1A E6 
19:13:55:2593 Rx 1 0x18DA21F1 x 8 2D B7 E4 3D 3D 87 C7 6C 
19:13:55:2596 Rx 1 0x18DA21F1 x 8 2E 82 EC 8C 26 1F EE 8E 
19:13:55:2599 Rx 1 0x18DA21F1 x 8 2F ED 86 EC 88 11 28 0D 
19:13:55:2602 Rx 1 0x18DA21F1 x 8 20 EC 86 CD 00 00 11 6D 
19:13:55:2604 Rx 1 0x18DA21F1 x 8 21 82 B7 46 EC 88 11 6D 
19:13:55:2607 Rx 1 0x18DA21F1 x 8 22 84 6C 88 87 C7 6C 86 
19:13:55:2610 Rx 1 0x18DA21F1 x 8 23 3D 97 27 09 EE 86 B7 
19:13:55:2613 Rx 1 0x18DA21F1 x 8 24 C5 CD 00 00 20 08 EE 
19:13:55:2616 Rx 1 0x18DA21F1 x 8 25 8D E6 86 ED 87 B7 C6 
19:13:55:2619 Rx 1 0x18DA21F1 x 8 26 11 35 EC F0 10 13 3B 
19:13:55:2622 Rx 1 0x18DA21F1 x 8 27 35 EC F0 12 ED 84 13 
19:13:55:2625 Rx 1 0x18DA21F1 x 8 28 E3 B1 30 B7 C5 27 02 
19:13:55:2627 Rx 1 0x18DA21F1 x 8 29 25 28 A3 8A B7 C5 E2 
19:13:55:2630 Rx 1 0x18DA21F1 x 8 2A 89 A2 88 25 2A 04 64 
19:13:55:2633 Rx 1 0x18DA21F1 x 8 2B 03 04 45 39 E7 8E 27 
19:13:55:2636 Rx 1 0x18DA21F1 x 8 2C 06 EE 8E 87 C7 20 0B 
19:13:55:2639 Rx 1 0x18DA21F1 x 8 2D B7 C5 36 34 69 AF EE 
19:13:55:2642 Rx 1 0x18DA21F1 x 8 2E F0 13 31 3A 18 10 08 
19:13:55:2645 Rx 1 0x18DA21F1 x 8 2F 3A 34 A3 B1 B7 46 20 
19:13:55:2648 Rx 1 0x18DA21F1 x 8 20 BA 31 02 20 B6 41 51 
19:13:55:2651 Rx 1 0x18DA21F1 x 8 21 B7 C5 41 51 04 A4 01 
19:13:55:2654 Rx 1 0x18DA21F1 x 8 22 08 AE 8E 22 EE 25 05 
19:13:55:2656 Rx 1 0x18DA21F1 x 8 23 AC F0 10 24 E7 31 6D 
19:13:55:2659 Rx 1 0x18DA21F1 x 8 24 84 69 83 69 82 6C 88 
19:13:55:2662 Rx 1 0x18DA21F1 x 8 25 6E 86 3D 3B 34 1B 9C 
19:13:55:2665 Rx 1 0x18DA21F1 x 8 26 15 FA FF 51 30 EC B5 
19:13:55:2668 Rx 1 0x18DA21F1 x 8 27 ED B5 05 40 87 C7 3B 
19:13:55:2671 Rx 1 0x18DA21F1 x 8 28 A3 02 6C 02 3A E2 01 
19:13:55:2674 Rx 1 0x18DA21F1 x 8 29 A2 00 6C 00 3D 3B 34 
19:13:55:2677 Rx 1 0x18DA21F1 x 8 2A 1B 9C E7 8A 2C 24 1A 
19:13:55:2680 Rx 1 0x18DA21F1 x 8 2B 8A 15 FA FF E3 E7 84 
19:13:55:2683 Rx 1 0x18DA21F1 x 8 2C 2C 0E 1A 84 15 FA FF 
19:13:55:2685 Rx 1 0x18DA21F1 x 8 2D D9 20 16 1A 84 15 FA 
19:13:55:2688 Rx 1 0x18DA21F1 x 8 2E FF D1 15 FA FF 17 1A 
19:13:55:2691 Rx 1 0x18DA21F1 x 8 2F 80 15 FA FF C7 20 08 
19:13:55:2694 Rx 1 0x18DA21F1 x 8 20 E7 84 2D EA 15 FA FF 
19:13:55:2697 Rx 1 0x18DA21F1 x 8 21 07 EC 82 EE 80 1B 88 
19:13:55:2700 Rx 1 0x18DA21F1 x 8 22 ED B5 05 40 3D 3B 34 
19:13:55:2703 Rx 1 0x18DA21F1 x 8 23 1B 9C 15 FA FE F4 EE 
19:13:55:2706 Rx 1 0x18DA21F1 x 8 24 84 EC 86 1B 88 ED B5 
19:13:55:2709 Rx 1 0x18DA21F1 x 8 25 05 40 3B 34 1B 9C E7 
19:13:55:2712 Rx 1 0x18DA21F1 x 8 26 8A 2C 06 1A 8A 15 FA 
19:13:55:2715 Rx 1 0x18DA21F1 x 8 27 FF 92 E7 84 2C 12 1A 
19:13:55:2717 Rx 1 0x18DA21F1 x 8 28 84 15 FA FF 88 15 FA 
19:13:55:2720 Rx 1 0x18DA21F1 x 8 29 FE CE 1A 84 15 FA FF 
19:13:55:2723 Rx 1 0x18DA21F1 x 8 2A 7E 20 04 15 FA FE C2 
19:13:55:2726 Rx 1 0x18DA21F1 x 8 2B EE 84 EC 86 1B 88 ED 
19:13:55:2729 Rx 1 0x18DA21F1 x 8 2C B5 05 40 3B B7 04 B7 
19:13:55:2732 Rx 1 0x18DA21F1 x 8 2D 05 3A 3D 18 0A 30 70 
19:13:55:2735 Rx 1 0x18DA21F1 x 8 2E 04 34 F9 3D 59 30 EE 
19:13:55:2738 Rx 1 0x18DA21F1 x 8 2F E6 05 00 30 E6 E6 05 
19:13:55:2741 Rx 1 0x18DA21F1 x 8 20 E5 30 AC 33 25 03 CC 
19:13:55:2744 Rx 1 0x18DA21F1 x 8 21 FF FF 59 05 E7 30 37 
19:13:55:2747 Rx 1 0x18DA21F1 x 8 22 E1 31 04 60 02 25 04 
19:13:55:2750 Rx 1 0x18DA21F1 x 8 23 E6 1F 20 02 E6 E5 1A 
19:13:55:2752 Rx 1 0x18DA21F1 x 8 24 E5 33 05 00 EE 80 AC 
19:13:55:2755 Rx 1 0x18DA21F1 x 8 25 00 22 08 AC 23 22 FC 
19:13:55:2758 Rx 1 0x18DA21F1 x 8 26 27 02 EE 80 1B 82 EE 
19:13:55:2761 Rx 1 0x18DA21F1 x 8 27 02 05 00 EE 80 AC 00 
19:13:55:2764 Rx 1 0x18DA21F1 x 8 28 22 08 AC 22 22 FC 27 
19:13:55:2767 Rx 1 0x18DA21F1 x 8 29 02 EE 80 37 E6 02 1A 
19:13:55:2770 Rx 1 0x18DA21F1 x 8 2A E5 E6 B2 05 00 EE 80 
19:13:55:2773 Rx 1 0x18DA21F1 x 8 2B 97 26 0C E1 00 22 08 
19:13:55:2776 Rx 1 0x18DA21F1 x 8 2C E1 22 22 FC 27 02 EE 
19:13:55:2779 Rx 1 0x18DA21F1 x 8 2D 80 1B 82 05 E3 00 01 
19:13:55:2782 Rx 1 0x18DA21F1 x 8 2E EE 80 97 26 0C E1 00 
19:13:55:2785 Rx 1 0x18DA21F1 x 8 2F 22 08 E1 21 22 FC 27 
19:13:55:2788 Rx 1 0x18DA21F1 x 8 20 02 EE 80 37 E6 01 1A 
19:13:55:2791 Rx 1 0x18DA21F1 x 8 21 E5 E6 B2 05 00 ED 81 
19:13:55:2794 Rx 1 0x18DA21F1 x 8 22 18 02 83 81 18 0A 80 
19:13:55:2797 Rx 1 0x18DA21F1 x 8 23 83 18 0A 85 80 6D 84 
19:13:55:2800 Rx 1 0x18DA21F1 x 8 24 0A 18 17 26 03 34 AD 
19:13:55:2803 Rx 1 0x18DA21F1 x 8 25 B1 3D 00 00 00 00 00 
19:13:55:2811 Rx 1 0x18DAF121 x 8 02 76 02 00 00 00 00 00 


19:13:55:3900 Rx 1 0x18DA21F1 x 8 01 37 00 00 00 00 00 00 

19:13:55:3906 Rx 1 0x18DAF121 x 8 01 77 02 00 00 00 00 00 

19:13:55:4106 Rx 1 0x18DA21F1 x 8 10 08 31 01 02 02 39 90 
19:13:55:4110 Rx 1 0x18DAF121 x 8 30 00 00 00 00 00 00 00 
19:13:55:4114 Rx 1 0x18DA21F1 x 8 21 40 72 00 00 00 00 00 
19:13:55:4119 Rx 1 0x18DAF121 x 8 03 7F 31 78 00 00 00 00 
19:13:55:4929 Rx 1 0x18DAF121 x 8 05 71 01 02 02 00 00 00 


19:13:55:5116 Rx 1 0x18DA21F1 x 8 10 0D 31 01 FF 00 44 00 
19:13:55:5119 Rx 1 0x18DAF121 x 8 30 00 00 00 00 00 00 00 
19:13:55:5123 Rx 1 0x18DA21F1 x 8 21 7D 80 00 00 02 00 00 
19:13:55:5130 Rx 1 0x18DAF121 x 8 03 7F 31 78 00 00 00 00 
19:13:55:5133 Rx 1 0x18DAF121 x 8 03 7F 31 78 00 00 00 00 
19:13:58:0143 Rx 1 0x18DAF121 x 8 03 7F 31 78 00 00 00 00 
19:14:00:5153 Rx 1 0x18DAF121 x 8 03 7F 31 78 00 00 00 00 
19:14:03:0164 Rx 1 0x18DAF121 x 8 03 7F 31 78 00 00 00 00 
19:14:04:5142 Rx 1 0x18DAF121 x 8 05 71 01 FF 00 00 00 00 


19:14:04:6243 Rx 1 0x18DA21F1 x 8 10 0B 34 00 44 00 7D 80 
19:14:04:6247 Rx 1 0x18DAF121 x 8 30 00 00 00 00 00 00 00 
19:14:04:6251 Rx 1 0x18DA21F1 x 8 21 00 00 02 00 00 00 00 
19:14:04:6258 Rx 1 0x18DAF121 x 8 04 74 20 04 E2 00 00 00 

19:14:04:9009 Rx 1 0x18DA21F1 x 8 14 E2 36 01 1B F1 9C 3B 
19:14:04:9012 Rx 1 0x18DAF121 x 8 30 00 00 00 00 00 00 00 
19:14:04:9028 Rx 1 0x18DA21F1 x 8 21 1B F1 E7 E6 F0 96 18 
19:14:04:9031 Rx 1 0x18DA21F1 x 8 22 27 0C 14 EE F0 82 E6 
19:14:04:9034 Rx 1 0x18DA21F1 x 8 23 E0 D3 26 0E B7 54 4A 
19:14:04:9037 Rx 1 0x18DA21F1 x 8 24 BA 4D F7 C6 01 EE F0 
19:14:04:9040 Rx 1 0x18DA21F1 x 8 25 82 6B E0 D3 E6 F0 95 
19:14:04:9042 Rx 1 0x18DA21F1 x 8 26 EA F0 94 EA F0 93 EA 
19:14:04:9045 Rx 1 0x18DA21F1 x 8 27 F0 92 27 02 C6 01 6B 
19:14:04:9048 Rx 1 0x18DA21F1 x 8 28 F0 3D 7B 3F B1 EC F0 
19:14:04:9051 Rx 1 0x18DA21F1 x 8 29 90 B7 01 87 6C F0 1B 
19:14:04:9054 Rx 1 0x18DA21F1 x 8 2A EC F0 8E 8C FA FF 23 
19:14:04:9057 Rx 1 0x18DA21F1 x 8 2B 02 C7 8F C6 01 6B F0 
19:14:04:9060 Rx 1 0x18DA21F1 x 8 2C 32 EC F0 88 3B EC F0 
19:14:04:9063 Rx 1 0x18DA21F1 x 8 2D 88 3B EC F0 88 C3 00 
19:14:04:9066 Rx 1 0x18DA21F1 x 8 2E 16 3B 1A E0 D4 34 EC 
19:14:04:9069 Rx 1 0x18DA21F1 x 8 2F F0 21 C3 00 06 4A A9 
19:14:04:9072 Rx 1 0x18DA21F1 x 8 20 22 F7 1B 88 FC 13 90 
19:14:04:9075 Rx 1 0x18DA21F1 x 8 21 27 1A FC 13 D4 27 08 
19:14:04:9078 Rx 1 0x18DA21F1 x 8 22 EE F0 84 EC E0 18 20 
19:14:04:9081 Rx 1 0x18DA21F1 x 8 23 08 E6 F0 32 27 08 EC 
19:14:04:9083 Rx 1 0x18DA21F1 x 8 24 F0 8E 6C F0 3B 20 04 
19:14:04:9086 Rx 1 0x18DA21F1 x 8 25 18 69 F0 3B EC F0 1B 
19:14:04:9089 Rx 1 0x18DA21F1 x 8 26 8C 00 FB 25 04 18 69 
19:14:04:9092 Rx 1 0x18DA21F1 x 8 27 F0 1B EC F0 8C 49 49 
19:14:04:9095 Rx 1 0x18DA21F1 x 8 28 49 BC 13 F4 24 02 C7 
19:14:04:9098 Rx 1 0x18DA21F1 x 8 29 8F C6 01 6B F0 68 E6 
19:14:04:9101 Rx 1 0x18DA21F1 x 8 2A F0 3D 18 27 0A F8 E6 
19:14:04:9104 Rx 1 0x18DA21F1 x 8 2B F0 95 27 27 EC F0 1B 
19:14:04:9107 Rx 1 0x18DA21F1 x 8 2C 27 22 CE 00 50 C7 87 
19:14:04:9110 Rx 1 0x18DA21F1 x 8 2D BE 3A 82 18 BC 3A 80 
19:14:04:9113 Rx 1 0x18DA21F1 x 8 2E 23 14 ED F0 1B 8D 00 
19:14:04:9116 Rx 1 0x18DA21F1 x 8 2F B4 24 0C FD 3A 82 6D 
19:14:04:9119 Rx 1 0x18DA21F1 x 8 20 86 FD 3A 80 6D 84 20 
19:14:04:9121 Rx 1 0x18DA21F1 x 8 21 03 16 8C 96 EE 86 26 
19:14:04:9124 Rx 1 0x18DA21F1 x 8 22 09 EE 84 26 05 FE 13 
19:14:04:9127 Rx 1 0x18DA21F1 x 8 23 D2 26 0C FE 3A 42 6E 
19:14:04:9130 Rx 1 0x18DA21F1 x 8 24 8A FE 3A 40 6E 88 20 
19:14:04:9133 Rx 1 0x18DA21F1 x 8 25 04 6C 8A 6C 88 FE 13 
19:14:04:9136 Rx 1 0x18DA21F1 x 8 26 D2 27 1F FE 13 F6 34 
19:14:04:9139 Rx 1 0x18DA21F1 x 8 27 3B CC 96 80 CE 00 98 
19:14:04:9142 Rx 1 0x18DA21F1 x 8 28 16 57 A4 ED 86 35 ED 
19:14:04:9145 Rx 1 0x18DA21F1 x 8 29 86 35 16 56 B0 6C F0 
19:14:04:9148 Rx 1 0x18DA21F1 x 8 2A 12 6E F0 10 20 2F E6 
19:14:04:9150 Rx 1 0x18DA21F1 x 8 2B F0 95 27 0B EC F0 1B 
19:14:04:9153 Rx 1 0x18DA21F1 x 8 2C B7 4D 6C 86 6E 84 20 
19:14:04:9156 Rx 1 0x18DA21F1 x 8 2D 05 C7 6C 86 6C 84 EC 
19:14:04:9159 Rx 1 0x18DA21F1 x 8 2E 86 3B EC 86 3B CC 15 
19:14:04:9162 Rx 1 0x18DA21F1 x 8 2F C7 CE 00 01 16 56 B0 
19:14:04:9165 Rx 1 0x18DA21F1 x 8 20 36 34 33 30 87 6E F0 
19:14:04:9168 Rx 1 0x18DA21F1 x 8 21 12 6C F0 10 EC 8A E3 
19:14:04:9171 Rx 1 0x18DA21F1 x 8 22 F0 12 6C 8A EE F0 10 
19:14:04:9174 Rx 1 0x18DA21F1 x 8 23 18 A9 88 6E 88 CC 27 
19:14:04:9176 Rx 1 0x18DA21F1 x 8 24 10 3B 18 87 34 EC 8E 
19:14:04:9179 Rx 1 0x18DA21F1 x 8 25 EE 8C 16 57 A4 F3 3A 
19:14:04:9182 Rx 1 0x18DA21F1 x 8 26 3A 6C F0 12 18 B9 3A 
19:14:04:9185 Rx 1 0x18DA21F1 x 8 27 38 6E F0 10 7C 3A 3A 
19:14:04:9188 Rx 1 0x18DA21F1 x 8 28 7E 3A 38 CD 00 7D 16 
19:14:04:9191 Rx 1 0x18DA21F1 x 8 29 8C C8 7C 3A 50 7E 3A 
19:14:04:9194 Rx 1 0x18DA21F1 x 8 2A 4E EC 8A 3B EC 8A 3B 
19:14:04:9197 Rx 1 0x18DA21F1 x 8 2B CC 27 10 18 87 4A 90 
19:14:04:9200 Rx 1 0x18DA21F1 x 8 2C 24 F6 1B 84 7C 3A 42 
19:14:04:9203 Rx 1 0x18DA21F1 x 8 2D 7E 3A 40 EC F0 12 B3 
19:14:04:9205 Rx 1 0x18DA21F1 x 8 2E 3A 46 6C F0 30 EE F0 
19:14:04:9208 Rx 1 0x18DA21F1 x 8 2F 10 18 B2 3A 44 6E F0 
19:14:04:9211 Rx 1 0x18DA21F1 x 8 20 2E CD 00 64 35 C7 87 
19:14:04:9214 Rx 1 0x18DA21F1 x 8 21 3B EC F0 34 16 57 A4 
19:14:04:9217 Rx 1 0x18DA21F1 x 8 22 6C F0 7D 6E F0 7B 7C 
19:14:04:9220 Rx 1 0x18DA21F1 x 8 23 3A 54 7E 3A 52 EC F0 
19:14:04:9223 Rx 1 0x18DA21F1 x 8 24 12 B3 3A 4A 6C F0 39 
19:14:04:9226 Rx 1 0x18DA21F1 x 8 25 EE F0 10 18 B2 3A 48 
19:14:04:9229 Rx 1 0x18DA21F1 x 8 26 6E F0 37 CD 00 64 16 
19:14:04:9232 Rx 1 0x18DA21F1 x 8 27 8C C8 6C F0 79 6E F0 
19:14:04:9234 Rx 1 0x18DA21F1 x 8 28 77 7C 3A 58 7E 3A 56 
19:14:04:9237 Rx 1 0x18DA21F1 x 8 29 EE F0 82 E6 E0 C2 6B 
19:14:04:9240 Rx 1 0x18DA21F1 x 8 2A F0 76 E6 E0 C2 E1 E0 
19:14:04:9243 Rx 1 0x18DA21F1 x 8 2B C3 22 02 C7 8F C6 01 
19:14:04:9246 Rx 1 0x18DA21F1 x 8 2C 6B F0 75 27 0C FC 3A 
19:14:04:9249 Rx 1 0x18DA21F1 x 8 2D 3A 7C 3A 46 FC 3A 38 
19:14:04:9252 Rx 1 0x18DA21F1 x 8 2E 7C 3A 44 EC 00 6C F0 
19:14:04:9255 Rx 1 0x18DA21F1 x 8 2F 64 EC 02 6C F0 66 EE 
19:14:04:9258 Rx 1 0x18DA21F1 x 8 20 04 ED F0 82 EC 46 AC 
19:14:04:9261 Rx 1 0x18DA21F1 x 8 21 42 18 AE 40 25 02 C7 
19:14:04:9264 Rx 1 0x18DA21F1 x 8 22 8F C6 01 6B F0 74 27 
19:14:04:9267 Rx 1 0x18DA21F1 x 8 23 0C FC 3A 3A 7C 3A 4A 
19:14:04:9270 Rx 1 0x18DA21F1 x 8 24 FC 3A 38 7C 3A 48 F6 
19:14:04:9272 Rx 1 0x18DA21F1 x 8 25 39 FD 6B F0 73 FC 3A 
19:14:04:9275 Rx 1 0x18DA21F1 x 8 26 00 6C F0 62 FC 39 FE 
19:14:04:9278 Rx 1 0x18DA21F1 x 8 27 6C F0 60 CC 03 E8 3B 
19:14:04:9281 Rx 1 0x18DA21F1 x 8 28 C7 87 3B EC F0 16 EE 
19:14:04:9284 Rx 1 0x18DA21F1 x 8 29 F0 14 16 57 A4 6C F0 
19:14:04:9287 Rx 1 0x18DA21F1 x 8 2A 27 6E F0 25 E6 F0 74 
19:14:04:9290 Rx 1 0x18DA21F1 x 8 2B 37 EC F0 1A C3 00 05 
19:14:04:9293 Rx 1 0x18DA21F1 x 8 2C 4A BA 40 F7 32 E6 F0 
19:14:04:9296 Rx 1 0x18DA21F1 x 8 2D 75 37 EC F0 1A C3 00 
19:14:04:9299 Rx 1 0x18DA21F1 x 8 2E 04 4A BA 40 F7 32 EE 
19:14:04:9302 Rx 1 0x18DA21F1 x 8 2F F0 82 EC 08 6C F0 5C 
19:14:04:9305 Rx 1 0x18DA21F1 x 8 20 EC 0A 6C F0 5E E6 E0 
19:14:04:9307 Rx 1 0x18DA21F1 x 8 21 C4 6B F0 72 FC 3A 54 
19:14:04:9310 Rx 1 0x18DA21F1 x 8 22 26 07 FC 3A 52 26 02 
19:14:04:9313 Rx 1 0x18DA21F1 x 8 23 C7 8F C6 01 6B F0 2D 
19:14:04:9316 Rx 1 0x18DA21F1 x 8 24 FC 3A 58 26 07 FC 3A 
19:14:04:9319 Rx 1 0x18DA21F1 x 8 25 56 26 02 C7 8F C6 01 
19:14:04:9322 Rx 1 0x18DA21F1 x 8 26 6B F0 32 F6 3F B0 6B 
19:14:04:9325 Rx 1 0x18DA21F1 x 8 27 F0 5B FC 3B 76 6C F0 
19:14:04:9328 Rx 1 0x18DA21F1 x 8 28 59 FC 3B 74 6C F0 57 
19:14:04:9331 Rx 1 0x18DA21F1 x 8 29 FC 3B 72 6C F0 2B F6 
19:14:04:9334 Rx 1 0x18DA21F1 x 8 2A 39 FD 6B F0 69 FC 3A 
19:14:04:9337 Rx 1 0x18DA21F1 x 8 2B 00 6C F0 35 FC 39 FE 
19:14:04:9340 Rx 1 0x18DA21F1 x 8 2C 6C F0 33 EC E0 3C 6C 
19:14:04:9343 Rx 1 0x18DA21F1 x 8 2D 8C EC E0 3E 6C 8E EC 
19:14:04:9345 Rx 1 0x18DA21F1 x 8 2E E0 3E A3 E0 42 6C F0 
19:14:04:9348 Rx 1 0x18DA21F1 x 8 2F 23 EC E0 3C 18 A3 E0 
19:14:04:9351 Rx 1 0x18DA21F1 x 8 20 40 6C F0 21 EC F0 1B 
19:14:04:9354 Rx 1 0x18DA21F1 x 8 21 26 05 E6 F0 68 27 0B 
19:14:04:9357 Rx 1 0x18DA21F1 x 8 22 16 8C 34 6C F0 16 6E 
19:14:04:9360 Rx 1 0x18DA21F1 x 8 23 F0 14 20 08 C7 87 6C 
19:14:04:9363 Rx 1 0x18DA21F1 x 8 24 F0 16 6C F0 14 EE F0 
19:14:04:9366 Rx 1 0x18DA21F1 x 8 25 82 EC E0 44 6C F0 53 
19:14:04:9369 Rx 1 0x18DA21F1 x 8 26 EC E0 46 6C F0 55 EC 
19:14:04:9372 Rx 1 0x18DA21F1 x 8 27 E0 46 E3 F0 16 6C F0 
19:14:04:9375 Rx 1 0x18DA21F1 x 8 28 1F EC F0 14 18 E3 E0 
19:14:04:9378 Rx 1 0x18DA21F1 x 8 29 44 6C F0 1D EC E0 44 
19:14:04:9380 Rx 1 0x18DA21F1 x 8 2A B7 46 EC E0 46 AC F0 
19:14:04:9383 Rx 1 0x18DA21F1 x 8 2B 1F 18 AD F0 1D 22 02 
19:14:04:9386 Rx 1 0x18DA21F1 x 8 2C C7 8F C6 01 6B F0 18 
19:14:04:9389 Rx 1 0x18DA21F1 x 8 2D 27 30 EE F0 19 E6 00 
19:14:04:9392 Rx 1 0x18DA21F1 x 8 2E 04 01 28 EE F0 82 CC 
19:14:04:9395 Rx 1 0x18DA21F1 x 8 2F FF FF A3 E0 AE CD FF 
19:14:04:9398 Rx 1 0x18DA21F1 x 8 20 FF 18 E2 E0 AC 3B EC 
19:14:04:9401 Rx 1 0x18DA21F1 x 8 21 E0 AA A3 80 6C 80 EC 
19:14:04:9404 Rx 1 0x18DA21F1 x 8 22 E0 A8 35 E2 81 A2 B1 
19:14:04:9407 Rx 1 0x18DA21F1 x 8 23 EE F0 86 6C 00 3A 6C 
19:14:04:9410 Rx 1 0x18DA21F1 x 8 24 02 E6 F0 18 27 02 C6 
19:14:04:9413 Rx 1 0x18DA21F1 x 8 25 01 EE F0 19 6B 00 E6 
19:14:04:9416 Rx 1 0x18DA21F1 x 8 26 F0 18 27 0D EE F0 84 
19:14:04:9418 Rx 1 0x18DA21F1 x 8 27 EC 00 6C 84 EC 02 6C 
19:14:04:9421 Rx 1 0x18DA21F1 x 8 28 86 20 03 16 8C 96 EC 
19:14:04:9424 Rx 1 0x18DA21F1 x 8 29 86 E3 F0 1F 6C 86 EE 
19:14:04:9427 Rx 1 0x18DA21F1 x 8 2A F0 1D 18 A9 84 6E 84 
19:14:04:9430 Rx 1 0x18DA21F1 x 8 2B ED F0 82 A3 E8 4A 6C 
19:14:04:9433 Rx 1 0x18DA21F1 x 8 2C 8A 18 A2 E8 48 6E 88 
19:14:04:9436 Rx 1 0x18DA21F1 x 8 2D EC E8 4C 6C F0 4F EC 
19:14:04:9439 Rx 1 0x18DA21F1 x 8 2E E8 4E 6C F0 51 EC E8 
19:14:04:9442 Rx 1 0x18DA21F1 x 8 2F 50 6C F0 4B EC E8 52 
19:14:04:9444 Rx 1 0x18DA21F1 x 8 20 6C F0 4D E6 F0 18 87 
19:14:04:9447 Rx 1 0x18DA21F1 x 8 21 E3 E8 3E 6C E8 3E EC 
19:14:04:9450 Rx 1 0x18DA21F1 x 8 22 E8 3C C9 00 89 00 6C 
19:14:04:9453 Rx 1 0x18DA21F1 x 8 23 E8 3C EC 8C 6C E8 40 
19:14:04:9456 Rx 1 0x18DA21F1 x 8 24 EC 8E 6C E8 42 EC F0 
19:14:04:9459 Rx 1 0x18DA21F1 x 8 25 1D 6C E8 44 EC F0 1F 
19:14:04:9465 Rx 1 0x18DA21F1 x 8 26 6C E8 46 EC F0 14 6C 
19:14:04:9467 Rx 1 0x18DA21F1 x 8 27 E8 A8 EC F0 16 6C E8 
19:14:04:9470 Rx 1 0x18DA21F1 x 8 28 AA EC F0 53 6C E8 AC 
19:14:04:9473 Rx 1 0x18DA21F1 x 8 29 EC F0 55 6C E8 AE EC 
19:14:04:9476 Rx 1 0x18DA21F1 x 8 2A 84 6C E8 48 EC 86 6C 
19:14:04:9479 Rx 1 0x18DA21F1 x 8 2B E8 4A EC E8 4E E3 F0 
19:14:04:9482 Rx 1 0x18DA21F1 x 8 2C 23 6C E8 4E EC F0 21 
19:14:04:9485 Rx 1 0x18DA21F1 x 8 2D 18 E3 E8 4C 6C E8 4C 
19:14:04:9487 Rx 1 0x18DA21F1 x 8 2E EC E8 52 E3 8A 6C E8 
19:14:04:9490 Rx 1 0x18DA21F1 x 8 2F 52 EC 88 18 E3 E8 50 
19:14:04:9493 Rx 1 0x18DA21F1 x 8 20 6C E8 50 EC 4C 6C 84 
19:14:04:9496 Rx 1 0x18DA21F1 x 8 21 EC 4E 6C 86 E6 E8 C5 
19:14:04:9499 Rx 1 0x18DA21F1 x 8 22 27 0A EC F0 27 6C 86 
19:14:04:9502 Rx 1 0x18DA21F1 x 8 23 EC F0 25 6C 84 EC F0 
19:14:04:9505 Rx 1 0x18DA21F1 x 8 24 27 A3 86 EE F0 25 18 
19:14:04:9508 Rx 1 0x18DA21F1 x 8 25 A2 84 CD 00 01 35 03 
19:14:04:9511 Rx 1 0x18DA21F1 x 8 26 35 16 56 7C 27 02 C7 
19:14:04:9513 Rx 1 0x18DA21F1 x 8 27 8F C6 01 6B F0 4A 18 
19:14:04:9516 Rx 1 0x18DA21F1 x 8 28 27 02 3B EE F0 19 E6 
19:14:04:9519 Rx 1 0x18DA21F1 x 8 29 01 04 21 03 06 86 D3 
19:14:04:9522 Rx 1 0x18DA21F1 x 8 2A ED F0 51 C7 87 35 EE 
19:14:04:9525 Rx 1 0x18DA21F1 x 8 2B F0 4D 18 8A 00 00 ED 
19:14:04:9528 Rx 1 0x18DA21F1 x 8 2C F0 86 6E 46 EA 81 AA 
19:14:04:9531 Rx 1 0x18DA21F1 x 8 2D 80 6C 44 16 8C D0 18 
19:14:04:9534 Rx 1 0x18DA21F1 x 8 2E BC 3A 38 1B 82 24 01 
19:14:04:9537 Rx 1 0x18DA21F1 x 8 2F 21 52 6B F0 18 ED F0 
19:14:04:9542 Rx 1 0x18DA21F1 x 8 20 82 EC E8 54 6C F0 3E 
19:14:04:9548 Rx 1 0x18DA21F1 x 8 21 EC E8 56 6C F0 40 C3 
19:14:04:9553 Rx 1 0x18DA21F1 x 8 22 27 10 6C E8 56 00 00 
19:14:04:9559 Rx 1 0x18DAF121 x 8 03 7F 36 78 00 00 00 00 

19:14:05:0108 Rx 1 0x18DAF121 x 8 02 76 01 78 00 00 00 00 



19:14:05:2840 Rx 1 0x18DA21F1 x 8 14 E2 36 02 EC F0 3E C9 
19:14:05:2844 Rx 1 0x18DAF121 x 8 30 00 00 00 00 00 00 00 
19:14:05:2848 Rx 1 0x18DA21F1 x 8 21 00 89 00 6C E8 54 B7 
19:14:05:2851 Rx 1 0x18DA21F1 x 8 22 45 EC E8 56 AC F0 40 
19:14:05:2854 Rx 1 0x18DA21F1 x 8 23 18 AE F0 3E 24 09 CC 
19:14:05:2857 Rx 1 0x18DA21F1 x 8 24 FF FF 6C E8 54 6C E8 
19:14:05:2860 Rx 1 0x18DA21F1 x 8 25 56 EC E8 54 6C F0 46 
19:14:05:2863 Rx 1 0x18DA21F1 x 8 26 EC E8 56 6C F0 48 E6 
19:14:05:2866 Rx 1 0x18DA21F1 x 8 27 F0 18 27 12 CD 00 0A 
19:14:05:2869 Rx 1 0x18DA21F1 x 8 28 FC 3B 76 FE 3B 74 16 
19:14:05:2871 Rx 1 0x18DA21F1 x 8 29 56 D7 6C 86 6E 84 20 
19:14:05:2874 Rx 1 0x18DA21F1 x 8 2A 61 CC 0D 40 A3 F0 48 
19:14:05:2877 Rx 1 0x18DA21F1 x 8 2B 6C 8E CC 00 03 18 A3 
19:14:05:2880 Rx 1 0x18DA21F1 x 8 2C F0 46 6C 8C CC 0D 40 
19:14:05:2883 Rx 1 0x18DA21F1 x 8 2D CE 00 03 AC 8E 18 AE 
19:14:05:2886 Rx 1 0x18DA21F1 x 8 2E 8C 24 06 C7 87 6C 8E 
19:14:05:2889 Rx 1 0x18DA21F1 x 8 2F 6C 8C FC 3B 72 19 07 
19:14:05:2902 Rx 1 0x18DA21F1 x 8 20 13 6C 8A 6D 88 16 8C 
19:14:05:2905 Rx 1 0x18DA21F1 x 8 21 82 CD 00 0A 16 56 D7 
19:14:05:2908 Rx 1 0x18DA21F1 x 8 22 3B 34 CC 00 00 0F 8E 
19:14:05:2911 Rx 1 0x18DA21F1 x 8 23 01 01 52 16 8C 9D 4A 
19:14:05:2914 Rx 1 0x18DA21F1 x 8 24 91 8C F7 1B 84 E3 8E 
19:14:05:2917 Rx 1 0x18DA21F1 x 8 25 6C 86 18 A9 8C 6E 84 
19:14:05:2920 Rx 1 0x18DA21F1 x 8 26 AC 8E 18 AE 8C 24 07 
19:14:05:2923 Rx 1 0x18DA21F1 x 8 27 CC FF FF 6C 86 6C 84 
19:14:05:2926 Rx 1 0x18DA21F1 x 8 28 FC 3B 72 CD 00 0A 13 
19:14:05:2929 Rx 1 0x18DA21F1 x 8 29 6C 8A 6D 88 EC 86 3B 
19:14:05:2931 Rx 1 0x18DA21F1 x 8 2A EC 86 3B C7 87 0F 8E 
19:14:05:2934 Rx 1 0x18DA21F1 x 8 2B 01 01 52 16 8C 9D 4A 
19:14:05:2937 Rx 1 0x18DA21F1 x 8 2C 91 8C F7 1B 84 6C 86 
19:14:05:2940 Rx 1 0x18DA21F1 x 8 2D 6E 84 ED F0 84 E3 46 
19:14:05:2943 Rx 1 0x18DA21F1 x 8 2E 6C 8A 18 A9 44 6E 88 
19:14:05:2946 Rx 1 0x18DA21F1 x 8 2F 7C 25 C2 7E 25 C0 EC 
19:14:05:2949 Rx 1 0x18DA21F1 x 8 20 86 7C 34 D0 EC 84 7C 
19:14:05:2952 Rx 1 0x18DA21F1 x 8 21 34 CE EE F0 82 ED E0 
19:14:05:2955 Rx 1 0x18DA21F1 x 8 22 BE 6D F0 70 02 6D E0 
19:14:05:2958 Rx 1 0x18DA21F1 x 8 23 BE EC E0 BE AC F0 70 
19:14:05:2961 Rx 1 0x18DA21F1 x 8 24 24 06 CC FF FF 6C E0 
19:14:05:2964 Rx 1 0x18DA21F1 x 8 25 BE EC E0 BE 6C F0 6E 
19:14:05:2967 Rx 1 0x18DA21F1 x 8 26 ED E0 C0 6D F0 6C 02 
19:14:05:2970 Rx 1 0x18DA21F1 x 8 27 6D E0 C0 EC E0 C0 AC 
19:14:05:2973 Rx 1 0x18DA21F1 x 8 28 F0 6C 24 06 CC FF FF 
19:14:05:2976 Rx 1 0x18DA21F1 x 8 29 6C E0 C0 EC E0 C0 6C 
19:14:05:2979 Rx 1 0x18DA21F1 x 8 2A F0 6A EE F0 84 EC 06 
19:14:05:2982 Rx 1 0x18DA21F1 x 8 2B 26 04 EC 04 27 7D FC 
19:14:05:2985 Rx 1 0x18DA21F1 x 8 2C 3A 3A 3B FC 3A 38 3B 
19:14:05:2988 Rx 1 0x18DA21F1 x 8 2D EC F0 72 18 87 6C 84 
19:14:05:2991 Rx 1 0x18DA21F1 x 8 2E CC 03 E8 4A 91 8C F7 
19:14:05:2993 Rx 1 0x18DA21F1 x 8 2F 6C A1 34 EC 84 CE 00 
19:14:05:2997 Rx 1 0x18DA21F1 x 8 20 00 16 56 7C 24 05 16 
19:14:05:2999 Rx 1 0x18DA21F1 x 8 21 8C BD 24 22 EC F0 6A 
19:14:05:3002 Rx 1 0x18DA21F1 x 8 22 8C 00 14 22 05 16 8C 
19:14:05:3005 Rx 1 0x18DA21F1 x 8 23 BD 25 15 ED F0 84 EC 
19:14:05:3008 Rx 1 0x18DA21F1 x 8 24 46 EE F0 82 A3 E0 5A 
19:14:05:3011 Rx 1 0x18DA21F1 x 8 25 6C 8A EC 44 18 A3 E0 
19:14:05:3014 Rx 1 0x18DA21F1 x 8 26 58 6C 88 FC 3A 3A 6C 
19:14:05:3017 Rx 1 0x18DA21F1 x 8 27 86 FC 3A 38 6C 84 16 
19:14:05:3020 Rx 1 0x18DA21F1 x 8 28 8C D0 18 BC 3A 38 22 
19:14:05:3023 Rx 1 0x18DA21F1 x 8 29 04 6E 86 6C 84 EC 86 
19:14:05:3026 Rx 1 0x18DA21F1 x 8 2A EE 84 CD 00 0A 16 56 
19:14:05:3029 Rx 1 0x18DA21F1 x 8 2B D7 3B 34 EC 8E EE 8C 
19:14:05:3032 Rx 1 0x18DA21F1 x 8 2C 4A 91 8C F7 1B 84 6C 
19:14:05:3035 Rx 1 0x18DA21F1 x 8 2D 86 6E 84 20 03 16 8C 
19:14:05:3037 Rx 1 0x18DA21F1 x 8 2E 96 16 8C 53 6C E0 10 
19:14:05:3041 Rx 1 0x18DA21F1 x 8 2F 7C 39 DC 18 69 F0 44 
19:14:05:3043 Rx 1 0x18DA21F1 x 8 20 EC F0 44 59 59 B7 45 
19:14:05:3046 Rx 1 0x18DA21F1 x 8 21 EC F0 82 1A E6 EC E0 
19:14:05:3049 Rx 1 0x18DA21F1 x 8 22 5C ED E0 5E 6D E0 5A 
19:14:05:3052 Rx 1 0x18DA21F1 x 8 23 6C E0 58 18 62 F0 44 
19:14:05:3055 Rx 1 0x18DA21F1 x 8 24 EC F0 44 8C 00 13 2D 
19:14:05:3058 Rx 1 0x18DA21F1 x 8 25 DC EE F0 84 EC 04 B7 
19:14:05:3061 Rx 1 0x18DA21F1 x 8 26 46 EC 06 EE F0 82 6C 
19:14:05:3064 Rx 1 0x18DA21F1 x 8 27 E0 A6 6D E0 A4 E6 F0 
19:14:05:3067 Rx 1 0x18DA21F1 x 8 28 4A 27 02 C6 01 EE F0 
19:14:05:3070 Rx 1 0x18DA21F1 x 8 29 19 6B 01 16 8C 82 3B 
19:14:05:3073 Rx 1 0x18DA21F1 x 8 2A CC 03 E8 A3 80 34 B7 
19:14:05:3076 Rx 1 0x18DA21F1 x 8 2B 46 CC 00 00 E2 81 A2 
19:14:05:3078 Rx 1 0x18DA21F1 x 8 2C B1 18 EB F0 5B 18 E3 
19:14:05:3081 Rx 1 0x18DA21F1 x 8 2D F0 59 AD F0 14 18 AC 
19:14:05:3084 Rx 1 0x18DA21F1 x 8 2E F0 12 1B 82 23 02 C7 
19:14:05:3087 Rx 1 0x18DA21F1 x 8 2F 8F C6 01 6B F0 18 E6 
19:14:05:3090 Rx 1 0x18DA21F1 x 8 20 F0 4A 26 12 EE F0 82 
19:14:05:3093 Rx 1 0x18DA21F1 x 8 21 E6 F0 69 E1 E0 C6 23 
19:14:05:3096 Rx 1 0x18DA21F1 x 8 22 05 E6 F0 2D 26 02 C7 
19:14:05:3099 Rx 1 0x18DA21F1 x 8 23 8F C6 01 6B F0 43 E6 
19:14:05:3102 Rx 1 0x18DA21F1 x 8 24 F0 4A 26 19 EE F0 82 
19:14:05:3105 Rx 1 0x18DA21F1 x 8 25 EC F0 35 ED F0 33 AC 
19:14:05:3108 Rx 1 0x18DA21F1 x 8 26 E0 12 18 AD E0 10 23 
19:14:05:3111 Rx 1 0x18DA21F1 x 8 27 05 E6 F0 32 26 02 C7 
19:14:05:3113 Rx 1 0x18DA21F1 x 8 28 8F C6 01 6B F0 42 E6 
19:14:05:3116 Rx 1 0x18DA21F1 x 8 29 F0 5B 27 08 EE F0 82 
19:14:05:3119 Rx 1 0x18DA21F1 x 8 2A EC E0 B8 20 6C E6 F0 
19:14:05:3122 Rx 1 0x18DA21F1 x 8 2B 18 27 08 EE F0 84 EC 
19:14:05:3125 Rx 1 0x18DA21F1 x 8 2C E0 10 20 03 EC F0 2B 
19:14:05:3128 Rx 1 0x18DA21F1 x 8 2D 6C F0 29 0E F0 8B 02 
19:14:05:3131 Rx 1 0x18DA21F1 x 8 2E 02 C7 8F C6 01 87 B7 
19:14:05:3134 Rx 1 0x18DA21F1 x 8 2F 45 EC F0 8A 49 49 1A 
19:14:05:3137 Rx 1 0x18DA21F1 x 8 20 E6 B7 54 B7 4E 6C 86 
19:14:05:3140 Rx 1 0x18DA21F1 x 8 21 6D 84 8C 00 14 22 09 
19:14:05:3143 Rx 1 0x18DA21F1 x 8 22 FC 14 18 6C 86 C7 87 
19:14:05:3145 Rx 1 0x18DA21F1 x 8 23 6C 84 EC F0 29 3B C6 
19:14:05:3148 Rx 1 0x18DA21F1 x 8 24 33 87 4A 91 DC F7 6C 
19:14:05:3151 Rx 1 0x18DA21F1 x 8 25 A1 EC 86 B3 14 18 6E 
19:14:05:3154 Rx 1 0x18DA21F1 x 8 26 82 ED 84 18 C2 00 00 
19:14:05:3157 Rx 1 0x18DA21F1 x 8 27 3B 35 EC 84 EE 86 16 
19:14:05:3160 Rx 1 0x18DA21F1 x 8 28 56 B0 3B 34 C6 0A 87 
19:14:05:3163 Rx 1 0x18DA21F1 x 8 29 B7 05 4A 91 8C F7 1B 
19:14:05:3166 Rx 1 0x18DA21F1 x 8 2A 84 EE F0 84 6C 08 E6 
19:14:05:3169 Rx 1 0x18DA21F1 x 8 2B F0 18 27 08 EE F0 84 
19:14:05:3172 Rx 1 0x18DA21F1 x 8 2C EC E0 10 20 06 EE F0 
19:14:05:3175 Rx 1 0x18DA21F1 x 8 2D 84 EC F0 2B 6C 0A EE 
19:14:05:3177 Rx 1 0x18DA21F1 x 8 2E F0 82 E6 E0 C7 6B F0 
19:14:05:3180 Rx 1 0x18DA21F1 x 8 2F 2D E6 E0 C7 E1 E0 C8 
19:14:05:3183 Rx 1 0x18DA21F1 x 8 20 22 02 C7 8F C6 01 6B 
19:14:05:3186 Rx 1 0x18DA21F1 x 8 21 F0 32 EE E0 14 ED F0 
19:14:05:3189 Rx 1 0x18DA21F1 x 8 22 82 EC E8 16 16 56 AB 
19:14:05:3192 Rx 1 0x18DA21F1 x 8 23 6C 86 6E 84 04 24 0D 
19:14:05:3195 Rx 1 0x18DA21F1 x 8 24 04 65 0A FC 3A 98 6C 
19:14:05:3198 Rx 1 0x18DA21F1 x 8 25 8A FC 3A 96 20 17 EC 
19:14:05:3201 Rx 1 0x18DA21F1 x 8 26 F0 1B 26 05 E6 F0 68 
19:14:05:3204 Rx 1 0x18DA21F1 x 8 27 27 09 16 8C 34 6C 8A 
19:14:05:3207 Rx 1 0x18DA21F1 x 8 28 6E 88 20 06 C7 87 6C 
19:14:05:3209 Rx 1 0x18DA21F1 x 8 29 8A 6C 88 EE F0 82 EC 
19:14:05:3212 Rx 1 0x18DA21F1 x 8 2A E0 1A E3 8A 6C 8A EC 
19:14:05:3215 Rx 1 0x18DA21F1 x 8 2B 88 18 E3 E0 18 6C 88 
19:14:05:3218 Rx 1 0x18DA21F1 x 8 2C E6 F0 32 27 07 C7 87 
19:14:05:3221 Rx 1 0x18DA21F1 x 8 2D 7C 3A 98 20 07 EC 8A 
19:14:05:3224 Rx 1 0x18DA21F1 x 8 2E 7C 3A 98 EC 88 7C 3A 
19:14:05:3227 Rx 1 0x18DA21F1 x 8 2F 96 E6 E0 C9 6B F0 5B 
19:14:05:3230 Rx 1 0x18DA21F1 x 8 20 EC E0 18 B7 46 EC E0 
19:14:05:3233 Rx 1 0x18DA21F1 x 8 21 1A AC 8A 18 AD 88 22 
19:14:05:3236 Rx 1 0x18DA21F1 x 8 22 02 C7 8F C6 01 87 F3 
19:14:05:3239 Rx 1 0x18DA21F1 x 8 23 3A 9C 6C 8E CC 00 00 
19:14:05:3241 Rx 1 0x18DA21F1 x 8 24 18 F3 3A 9A 6C 8C E6 
19:14:05:3244 Rx 1 0x18DA21F1 x 8 25 E0 C9 E1 E0 CA 23 07 
19:14:05:3247 Rx 1 0x18DA21F1 x 8 26 C7 87 7C 3A 9C 20 07 
19:14:05:3250 Rx 1 0x18DA21F1 x 8 27 EC 8E 7C 3A 9C EC 8C 
19:14:05:3253 Rx 1 0x18DA21F1 x 8 28 7C 3A 9A E6 E0 CF 26 
19:14:05:3256 Rx 1 0x18DA21F1 x 8 29 05 E6 F0 32 27 0A 18 
19:14:05:3259 Rx 1 0x18DA21F1 x 8 2A 69 E0 18 18 69 E0 1A 
19:14:05:3262 Rx 1 0x18DA21F1 x 8 2B 20 0A EC 88 6C E0 18 
19:14:05:3265 Rx 1 0x18DA21F1 x 8 2C EC 8A 6C E0 1A E6 E0 
19:14:05:3268 Rx 1 0x18DA21F1 x 8 2D CD 6B E0 C7 E6 F0 2D 
19:14:05:3271 Rx 1 0x18DA21F1 x 8 2E 6B E0 C8 EC 84 6C E0 
19:14:05:3273 Rx 1 0x18DA21F1 x 8 2F 14 EC 86 6C E0 16 E6 
19:14:05:3276 Rx 1 0x18DA21F1 x 8 20 E0 CB 6B E0 C9 E6 F0 
19:14:05:3279 Rx 1 0x18DA21F1 x 8 21 5B 6B E0 CA E6 E0 D0 
19:14:05:3282 Rx 1 0x18DA21F1 x 8 22 6B E0 CF E6 E0 CC 6B 
19:14:05:3285 Rx 1 0x18DA21F1 x 8 23 E0 CB F6 39 FD 6B E0 
19:14:05:3288 Rx 1 0x18DA21F1 x 8 24 CC E6 E0 CE 6B E0 CD 
19:14:05:3291 Rx 1 0x18DA21F1 x 8 25 F6 39 FD 6B E0 CE 86 
19:14:05:3294 Rx 1 0x18DA21F1 x 8 26 E1 C7 CE 05 F5 AC F0 
19:14:05:3297 Rx 1 0x18DA21F1 x 8 27 30 18 AE F0 2E 23 01 
19:14:05:3300 Rx 1 0x18DA21F1 x 8 28 21 52 ED F0 82 6B E8 
19:14:05:3303 Rx 1 0x18DA21F1 x 8 29 D0 E6 F0 43 27 32 ED 
19:14:05:3305 Rx 1 0x18DA21F1 x 8 2A F0 19 E6 43 04 01 2A 
19:14:05:3308 Rx 1 0x18DA21F1 x 8 2B ED 8E C7 87 35 ED 8C 
19:14:05:3311 Rx 1 0x18DA21F1 x 8 2C EE 8A 16 8C AE 1B 82 
19:14:05:3314 Rx 1 0x18DA21F1 x 8 2D 26 03 04 44 0B EC F0 
19:14:05:3317 Rx 1 0x18DA21F1 x 8 2E 30 EE F0 2E 16 8C 6B 
19:14:05:3320 Rx 1 0x18DA21F1 x 8 2F 20 03 16 8C 96 16 8C 
19:14:05:3323 Rx 1 0x18DA21F1 x 8 20 53 6C E0 14 7C 39 D8 
19:14:05:3326 Rx 1 0x18DA21F1 x 8 21 E6 F0 43 27 02 C6 01 
19:14:05:3329 Rx 1 0x18DA21F1 x 8 22 EE F0 19 6B 03 E6 F0 
19:14:05:3332 Rx 1 0x18DA21F1 x 8 23 43 26 08 EE F0 82 EC 
19:14:05:3335 Rx 1 0x18DA21F1 x 8 24 E0 BA 20 06 EE F0 84 
19:14:05:3337 Rx 1 0x18DA21F1 x 8 25 EC E0 14 6C F0 29 EE 
19:14:05:3340 Rx 1 0x18DA21F1 x 8 26 F0 82 EC E0 1C 6C 84 
19:14:05:3346 Rx 1 0x18DA21F1 x 8 27 EC E0 1E 6C 86 EC E0 
19:14:05:3349 Rx 1 0x18DA21F1 x 8 28 1C ED E0 1E AD E0 22 
19:14:05:3352 Rx 1 0x18DA21F1 x 8 29 18 AC E0 20 22 02 C7 
19:14:05:3355 Rx 1 0x18DA21F1 x 8 2A 8F C6 01 6B F0 2D EE 
19:14:05:3358 Rx 1 0x18DA21F1 x 8 2B E0 24 ED F0 82 EC E8 
19:14:05:3361 Rx 1 0x18DA21F1 x 8 2C 26 16 56 AB 6C 8A 6E 
19:14:05:3364 Rx 1 0x18DA21F1 x 8 2D 88 04 24 0D 04 65 0A 
19:14:05:3367 Rx 1 0x18DA21F1 x 8 2E FC 3A A0 6C 8E FC 3A 
19:14:05:3369 Rx 1 0x18DA21F1 x 8 2F 9E 20 17 EC F0 1B 26 
19:14:05:3372 Rx 1 0x18DA21F1 x 8 20 05 E6 F0 68 27 09 16 
19:14:05:3375 Rx 1 0x18DA21F1 x 8 21 8C 34 6C 8E 6E 8C 20 
19:14:05:3378 Rx 1 0x18DA21F1 x 8 22 06 C7 87 6C 8E 00 00 
19:14:05:3384 Rx 1 0x18DAF121 x 8 03 7F 36 78 00 00 00 00 
19:14:05:3933 Rx 1 0x18DAF121 x 8 02 76 02 78 00 00 00 00 


19:14:05:6772 Rx 1 0x18DA21F1 x 8 14 E2 36 03 6C 8C EE F0 
19:14:05:6776 Rx 1 0x18DAF121 x 8 30 00 00 00 00 00 00 00 
19:14:05:6781 Rx 1 0x18DA21F1 x 8 21 82 EC E0 2A E3 8E 6C 
19:14:05:6784 Rx 1 0x18DA21F1 x 8 22 8E EC 8C 18 E3 E0 28 
19:14:05:6787 Rx 1 0x18DA21F1 x 8 23 6C 8C E6 F0 2D 27 07 
19:14:05:6790 Rx 1 0x18DA21F1 x 8 24 C7 87 7C 3A A0 20 07 
19:14:05:6793 Rx 1 0x18DA21F1 x 8 25 EC 8E 7C 3A A0 EC 8C 
19:14:05:6796 Rx 1 0x18DA21F1 x 8 26 7C 3A 9E EC E0 2C 6C 
19:14:05:6798 Rx 1 0x18DA21F1 x 8 27 F0 21 EC E0 2E 6C F0 
19:14:05:6801 Rx 1 0x18DA21F1 x 8 28 23 EC E0 28 B7 46 EC 
19:14:05:6804 Rx 1 0x18DA21F1 x 8 29 E0 2A AC 8E 18 AD 8C 
19:14:05:6807 Rx 1 0x18DA21F1 x 8 2A 22 02 C7 8F C6 01 87 
19:14:05:6810 Rx 1 0x18DA21F1 x 8 2B F3 3A A4 6C F0 16 CC 
19:14:05:6813 Rx 1 0x18DA21F1 x 8 2C 00 00 18 F3 3A A2 6C 
19:14:05:6816 Rx 1 0x18DA21F1 x 8 2D F0 14 E6 E0 D1 26 0F 
19:14:05:6819 Rx 1 0x18DA21F1 x 8 2E EC E0 2C ED E0 2E AD 
19:14:05:6822 Rx 1 0x18DA21F1 x 8 2F E0 32 18 AC E0 30 23 
19:14:05:6825 Rx 1 0x18DA21F1 x 8 20 07 C7 87 7C 3A A4 20 
19:14:05:6828 Rx 1 0x18DA21F1 x 8 21 09 EC F0 16 7C 3A A4 
19:14:05:6830 Rx 1 0x18DA21F1 x 8 22 EC F0 14 7C 3A A2 E6 
19:14:05:6833 Rx 1 0x18DA21F1 x 8 23 E0 D1 26 05 E6 F0 2D 
19:14:05:6836 Rx 1 0x18DA21F1 x 8 24 27 0A 18 69 E0 28 18 
19:14:05:6839 Rx 1 0x18DA21F1 x 8 25 69 E0 2A 20 0A EC 8C 
19:14:05:6842 Rx 1 0x18DA21F1 x 8 26 6C E0 28 EC 8E 6C E0 
19:14:05:6845 Rx 1 0x18DA21F1 x 8 27 2A EC E0 34 6C E0 1C 
19:14:05:6848 Rx 1 0x18DA21F1 x 8 28 EC E0 36 6C E0 1E EC 
19:14:05:6851 Rx 1 0x18DA21F1 x 8 29 84 6C E0 20 EC 86 6C 
19:14:05:6854 Rx 1 0x18DA21F1 x 8 2A E0 22 EC 88 6C E0 24 
19:14:05:6857 Rx 1 0x18DA21F1 x 8 2B EC 8A 6C E0 26 E6 E0 
19:14:05:6860 Rx 1 0x18DA21F1 x 8 2C D2 6B E0 D1 EC E0 38 
19:14:05:6862 Rx 1 0x18DA21F1 x 8 2D 6C E0 2C EC E0 3A 6C 
19:14:05:6865 Rx 1 0x18DA21F1 x 8 2E E0 2E EC F0 21 6C E0 
19:14:05:6868 Rx 1 0x18DA21F1 x 8 2F 30 EC F0 23 6C E0 32 
19:14:05:6871 Rx 1 0x18DA21F1 x 8 20 FC 39 FE 6C E0 34 FC 
19:14:05:6874 Rx 1 0x18DA21F1 x 8 21 3A 00 6C E0 36 FC 39 
19:14:05:6877 Rx 1 0x18DA21F1 x 8 22 FE 6C E0 38 FC 3A 00 
19:14:05:6880 Rx 1 0x18DA21F1 x 8 23 6C E0 3A 86 E1 C7 CE 
19:14:05:6883 Rx 1 0x18DA21F1 x 8 24 05 F5 AC F0 39 18 AE 
19:14:05:6886 Rx 1 0x18DA21F1 x 8 25 F0 37 23 01 21 52 ED 
19:14:05:6900 Rx 1 0x18DA21F1 x 8 26 F0 82 6B E8 D2 E6 F0 
19:14:05:6903 Rx 1 0x18DA21F1 x 8 27 42 27 34 ED F0 19 E6 
19:14:05:6906 Rx 1 0x18DA21F1 x 8 28 42 04 01 2C ED F0 16 
19:14:05:6909 Rx 1 0x18DA21F1 x 8 29 C7 87 35 ED F0 10 EE 
19:14:05:6912 Rx 1 0x18DA21F1 x 8 2A 8E 16 8C AE 1B 82 26 
19:14:05:6915 Rx 1 0x18DA21F1 x 8 2B 03 04 44 0B EC F0 39 
19:14:05:6918 Rx 1 0x18DA21F1 x 8 2C EE F0 37 16 8C 6B 20 
19:14:05:6921 Rx 1 0x18DA21F1 x 8 2D 03 16 8C 96 16 8C 53 
19:14:05:6924 Rx 1 0x18DA21F1 x 8 2E 6C E0 12 7C 39 DA E6 
19:14:05:6927 Rx 1 0x18DA21F1 x 8 2F F0 42 27 02 C6 01 EE 
19:14:05:6930 Rx 1 0x18DA21F1 x 8 20 F0 19 6B 02 E6 F0 42 
19:14:05:6933 Rx 1 0x18DA21F1 x 8 21 26 08 EE F0 82 EC E0 
19:14:05:6936 Rx 1 0x18DA21F1 x 8 22 BC 20 06 EE F0 84 EC 
19:14:05:6939 Rx 1 0x18DA21F1 x 8 23 E0 12 6C F0 2B E6 F0 
19:14:05:6942 Rx 1 0x18DA21F1 x 8 24 18 27 08 EE F0 84 EC 
19:14:05:6945 Rx 1 0x18DA21F1 x 8 25 F0 29 20 06 EE F0 84 
19:14:05:6948 Rx 1 0x18DA21F1 x 8 26 FC 3B 6E 6C 0C E6 F0 
19:14:05:6951 Rx 1 0x18DA21F1 x 8 27 18 27 05 EC F0 2B 20 
19:14:05:6954 Rx 1 0x18DA21F1 x 8 28 03 FC 3B 70 6C 0E EE 
19:14:05:6957 Rx 1 0x18DA21F1 x 8 29 F0 82 E6 F0 72 6B E0 
19:14:05:6960 Rx 1 0x18DA21F1 x 8 2A C2 E6 F0 76 6B E0 C3 
19:14:05:6963 Rx 1 0x18DA21F1 x 8 2B EC F0 5C 6C 00 EC F0 
19:14:05:6966 Rx 1 0x18DA21F1 x 8 2C 5E 6C 02 EC F0 64 6C 
19:14:05:6969 Rx 1 0x18DA21F1 x 8 2D 04 EC F0 66 6C 06 EC 
19:14:05:6972 Rx 1 0x18DA21F1 x 8 2E F0 60 6C 08 EC F0 62 
19:14:05:6975 Rx 1 0x18DA21F1 x 8 2F 6C 0A E6 F0 73 6B E0 
19:14:05:6978 Rx 1 0x18DA21F1 x 8 20 C4 69 E0 C5 EC F0 25 
19:14:05:6981 Rx 1 0x18DA21F1 x 8 21 6C 0C EC F0 27 6C 0E 
19:14:05:6984 Rx 1 0x18DA21F1 x 8 22 EC F0 33 6C E0 10 EC 
19:14:05:6987 Rx 1 0x18DA21F1 x 8 23 F0 35 6C E0 12 E6 F0 
19:14:05:6990 Rx 1 0x18DA21F1 x 8 24 69 6B E0 C6 ED F0 84 
19:14:05:6993 Rx 1 0x18DA21F1 x 8 25 EC 48 6C E0 B8 EC F0 
19:14:05:6996 Rx 1 0x18DA21F1 x 8 26 29 6C E0 BA EC F0 2B 
19:14:05:6999 Rx 1 0x18DA21F1 x 8 27 6C E0 BC E6 F0 3D 27 
19:14:05:7002 Rx 1 0x18DA21F1 x 8 28 07 EE F0 84 EC 0A 20 
19:14:05:7005 Rx 1 0x18DA21F1 x 8 29 06 EE F0 82 EC E0 B0 
19:14:05:7008 Rx 1 0x18DA21F1 x 8 2A 7C 3A 5C E6 F0 3D 27 
19:14:05:7010 Rx 1 0x18DA21F1 x 8 2B 07 EE F0 84 EC 0E 20 
19:14:05:7013 Rx 1 0x18DA21F1 x 8 2C 06 EE F0 82 EC E0 B2 
19:14:05:7016 Rx 1 0x18DA21F1 x 8 2D 7C 3A 60 E6 F0 3D 27 
19:14:05:7019 Rx 1 0x18DA21F1 x 8 2E 07 EE F0 84 EC 0C 20 
19:14:05:7022 Rx 1 0x18DA21F1 x 8 2F 06 EE F0 82 EC E0 B4 
19:14:05:7025 Rx 1 0x18DA21F1 x 8 20 7C 3A 5E E6 F0 3D 27 
19:14:05:7028 Rx 1 0x18DA21F1 x 8 21 07 EE F0 84 EC 08 20 
19:14:05:7031 Rx 1 0x18DA21F1 x 8 22 06 EE F0 82 EC E0 B6 
19:14:05:7034 Rx 1 0x18DA21F1 x 8 23 7C 3A 36 EE F0 82 FC 
19:14:05:7037 Rx 1 0x18DA21F1 x 8 24 3A 5C 6C E0 B0 FC 3A 
19:14:05:7040 Rx 1 0x18DA21F1 x 8 25 60 6C E0 B2 FC 3A 5E 
19:14:05:7043 Rx 1 0x18DA21F1 x 8 26 6C E0 B4 FC 3A 36 6C 
19:14:05:7046 Rx 1 0x18DA21F1 x 8 27 E0 B6 20 0E EE F0 82 
19:14:05:7049 Rx 1 0x18DA21F1 x 8 28 E6 E0 D3 27 06 B7 54 
19:14:05:7052 Rx 1 0x18DA21F1 x 8 29 4A BA 69 F7 1B F0 7F 
19:14:05:7054 Rx 1 0x18DA21F1 x 8 2A 0A EC F0 3D CD E3 8D 
19:14:05:7057 Rx 1 0x18DA21F1 x 8 2B 13 3B C6 05 B7 65 31 
19:14:05:7060 Rx 1 0x18DA21F1 x 8 2C 16 56 4B CD 00 14 35 
19:14:05:7063 Rx 1 0x18DA21F1 x 8 2D B7 46 C7 87 3B B7 64 
19:14:05:7066 Rx 1 0x18DA21F1 x 8 2E 16 57 A4 3D ED 88 EE 
19:14:05:7069 Rx 1 0x18DA21F1 x 8 2F 86 C6 09 16 56 3A 6E 
19:14:05:7072 Rx 1 0x18DA21F1 x 8 20 82 1A 4A 34 35 EE 86 
19:14:05:7075 Rx 1 0x18DA21F1 x 8 21 16 57 A4 EE F0 86 3D 
19:14:05:7078 Rx 1 0x18DA21F1 x 8 22 CD 00 0A 16 56 D7 3B 
19:14:05:7081 Rx 1 0x18DA21F1 x 8 23 34 EC 8C EE 8A 4A 91 
19:14:05:7084 Rx 1 0x18DA21F1 x 8 24 8C F7 1B 84 6C 88 6E 
19:14:05:7086 Rx 1 0x18DA21F1 x 8 25 86 3D FC 3B 76 3B FC 
19:14:05:7089 Rx 1 0x18DA21F1 x 8 26 3B 74 3B CC 03 E8 18 
19:14:05:7092 Rx 1 0x18DA21F1 x 8 27 87 4A 90 24 F6 1B 84 
19:14:05:7095 Rx 1 0x18DA21F1 x 8 28 3D C7 87 6C 88 6C 86 
19:14:05:7098 Rx 1 0x18DA21F1 x 8 29 3D ED F0 10 EE 8E 6C 
19:14:05:7101 Rx 1 0x18DA21F1 x 8 2A 86 C6 09 16 56 4B E3 
19:14:05:7104 Rx 1 0x18DA21F1 x 8 2B 86 B7 4D 3D 18 8A 00 
19:14:05:7107 Rx 1 0x18DA21F1 x 8 2C 00 6E 8A EA 83 AA 82 
19:14:05:7110 Rx 1 0x18DA21F1 x 8 2D 6C 88 18 97 3D CC 4E 
19:14:05:7113 Rx 1 0x18DA21F1 x 8 2E 20 BC 3A 3A 18 BE 3A 
19:14:05:7115 Rx 1 0x18DA21F1 x 8 2F 38 3D 35 18 C7 35 16 
19:14:05:7118 Rx 1 0x18DA21F1 x 8 20 57 A4 3D C7 87 CE 4E 
19:14:05:7121 Rx 1 0x18DA21F1 x 8 21 20 BE 3A 3A 3D 3B E6 
19:14:05:7124 Rx 1 0x18DA21F1 x 8 22 85 7B 2A BB F6 38 3C 
19:14:05:7127 Rx 1 0x18DA21F1 x 8 23 27 02 C7 8F C6 01 E4 
19:14:05:7130 Rx 1 0x18DA21F1 x 8 24 85 EE 80 6B 00 27 05 
19:14:05:7133 Rx 1 0x18DA21F1 x 8 25 FC 13 74 26 02 C7 8F 
19:14:05:7136 Rx 1 0x18DA21F1 x 8 26 C6 01 7B 2A 76 F6 38 
19:14:05:7139 Rx 1 0x18DA21F1 x 8 27 3D 27 02 C7 8F C6 01 
19:14:05:7142 Rx 1 0x18DA21F1 x 8 28 E4 85 6B 01 27 05 FC 
19:14:05:7145 Rx 1 0x18DA21F1 x 8 29 13 74 26 02 C7 8F C6 
19:14:05:7147 Rx 1 0x18DA21F1 x 8 2A 01 7B 2A 77 F6 38 48 
19:14:05:7150 Rx 1 0x18DA21F1 x 8 2B 27 02 C7 8F C6 01 F4 
19:14:05:7153 Rx 1 0x18DA21F1 x 8 2C 2A BB 7B 2A 82 3A 0A 
19:14:05:7156 Rx 1 0x18DA21F1 x 8 2D B7 45 69 00 18 69 01 
19:14:05:7159 Rx 1 0x18DA21F1 x 8 2E 18 69 03 86 02 C7 6C 
19:14:05:7162 Rx 1 0x18DA21F1 x 8 2F 06 6B 05 0A 6C AB 1B 
19:14:05:7165 Rx 1 0x18DA21F1 x 8 20 91 FC 39 CA 6C 84 F6 
19:14:05:7168 Rx 1 0x18DA21F1 x 8 21 3A 8A 6B F0 13 E6 F0 
19:14:05:7171 Rx 1 0x18DA21F1 x 8 22 21 EA F0 20 27 02 C6 
19:14:05:7174 Rx 1 0x18DA21F1 x 8 23 01 6B 8B FC 13 66 27 
19:14:05:7177 Rx 1 0x18DA21F1 x 8 24 0E E6 F0 22 26 04 E6 
19:14:05:7179 Rx 1 0x18DA21F1 x 8 25 8B 26 02 C7 8F C6 01 
19:14:05:7182 Rx 1 0x18DA21F1 x 8 26 8F E6 8B 6B 80 E6 F0 
19:14:05:7185 Rx 1 0x18DA21F1 x 8 27 1F EA F0 1E 27 02 C6 
19:14:05:7188 Rx 1 0x18DA21F1 x 8 28 01 6B 8E A6 F0 1D AA 
19:14:05:7191 Rx 1 0x18DA21F1 x 8 29 F0 1C 27 02 86 01 6A 
19:14:05:7194 Rx 1 0x18DA21F1 x 8 2A 86 E6 80 EA 8E EA 86 
19:14:05:7197 Rx 1 0x18DA21F1 x 8 2B 27 02 C6 01 6B 8D EE 
19:14:05:7200 Rx 1 0x18DA21F1 x 8 2C 8F E6 F0 1B E1 00 26 
19:14:05:7203 Rx 1 0x18DA21F1 x 8 2D 02 C7 8F C6 01 6B F0 
19:14:05:7206 Rx 1 0x18DA21F1 x 8 2E 12 27 06 E6 06 2E 02 
19:14:05:7209 Rx 1 0x18DA21F1 x 8 2F 69 01 E6 01 37 C6 02 
19:14:05:7212 Rx 1 0x18DA21F1 x 8 20 4A 90 4E F6 1B 81 04 
19:14:05:7214 Rx 1 0x18DA21F1 x 8 21 41 05 C6 01 6B 80 8F 
19:14:05:7217 Rx 1 0x18DA21F1 x 8 22 69 80 FC 13 66 27 04 
19:14:05:7220 Rx 1 0x18DA21F1 x 8 23 E6 80 20 03 E6 F0 1A 
19:14:05:7223 Rx 1 0x18DA21F1 x 8 24 6B 83 EE 8F E1 02 22 
19:14:05:7226 Rx 1 0x18DA21F1 x 8 25 02 C7 8F C6 01 6B 81 
19:14:05:7229 Rx 1 0x18DA21F1 x 8 26 E6 8D 27 09 FC 13 64 
19:14:05:7232 Rx 1 0x18DA21F1 x 8 27 27 04 E6 81 26 02 C7 
19:14:05:7235 Rx 1 0x18DA21F1 x 8 28 8F C6 01 6B F0 11 E6 
19:14:05:7238 Rx 1 0x18DA21F1 x 8 29 83 E1 03 25 02 C7 8F 
19:14:05:7241 Rx 1 0x18DA21F1 x 8 2A C6 01 6B 81 FC 13 66 
19:14:05:7244 Rx 1 0x18DA21F1 x 8 2B 27 05 69 8C 06 8E BC 
19:14:05:7246 Rx 1 0x18DA21F1 x 8 2C E6 8D 18 26 00 AF 1E 
19:14:05:7249 Rx 1 0x18DA21F1 x 8 2D 3B 9A 10 0A 1E 3B 9A 
19:14:05:7252 Rx 1 0x18DA21F1 x 8 2E 40 05 1F 3B 9A 80 24 
19:14:05:7255 Rx 1 0x18DA21F1 x 8 2F FE 3B 9A 18 84 E4 00 
19:14:05:7258 Rx 1 0x18DA21F1 x 8 20 8E 04 00 27 0A FE 3B 
19:14:05:7261 Rx 1 0x18DA21F1 x 8 21 9A 18 84 E8 00 8E 08 
19:14:05:7264 Rx 1 0x18DA21F1 x 8 22 00 27 0A FE 3B 9A 18 
19:14:05:7267 Rx 1 0x18DA21F1 x 8 23 84 E1 00 8E 01 00 27 
19:14:05:7270 Rx 1 0x18DA21F1 x 8 24 24 1E 3B 9D 01 15 F6 
19:14:05:7273 Rx 1 0x18DA21F1 x 8 25 3B 9D C4 64 C1 04 27 
19:14:05:7276 Rx 1 0x18DA21F1 x 8 26 0C FE 3B 9C 18 84 03 
19:14:05:7279 Rx 1 0x18DA21F1 x 8 27 E8 8E 00 08 26 24 FE 
19:14:05:7281 Rx 1 0x18DA21F1 x 8 28 3B 9C 18 84 27 10 8E 
19:14:05:7284 Rx 1 0x18DA21F1 x 8 29 00 10 27 58 FE 3B 9C 
19:14:05:7287 Rx 1 0x18DA21F1 x 8 2A 18 84 42 40 8E 00 40 
19:14:05:7290 Rx 1 0x18DA21F1 x 8 2B 27 4C FE 3B 9C 18 84 
19:14:05:7293 Rx 1 0x18DA21F1 x 8 2C 96 80 8E 00 80 27 40 
19:14:05:7296 Rx 1 0x18DA21F1 x 8 2D 1E 3B 9B 01 15 F6 3B 
19:14:05:7299 Rx 1 0x18DA21F1 x 8 2E 9B C4 64 C1 04 27 0C 
19:14:05:7302 Rx 1 0x18DA21F1 x 8 2F FE 3B 9A 18 84 03 E8 
19:14:05:7305 Rx 1 0x18DA21F1 x 8 20 8E 00 08 26 24 FE 3B 
19:14:05:7308 Rx 1 0x18DA21F1 x 8 21 9A 18 84 27 10 8E 00 
19:14:05:7311 Rx 1 0x18DA21F1 x 8 22 10 27 1A FE 3B 00 00 
19:14:05:7316 Rx 1 0x18DAF121 x 8 03 7F 36 78 00 00 00 00 
19:14:05:7866 Rx 1 0x18DAF121 x 8 02 76 03 78 00 00 00 00 


19:14:06:0601 Rx 1 0x18DA21F1 x 8 14 E2 36 04 9A 18 84 42 
19:14:06:0604 Rx 1 0x18DAF121 x 8 30 00 00 00 00 00 00 00 
19:14:06:0609 Rx 1 0x18DA21F1 x 8 21 40 8E 00 40 27 0E FE 
19:14:06:0612 Rx 1 0x18DA21F1 x 8 22 3B 9A 18 84 96 80 8E 
19:14:06:0615 Rx 1 0x18DA21F1 x 8 23 00 80 27 02 C7 8F C6 
19:14:06:0618 Rx 1 0x18DA21F1 x 8 24 01 6B 8C E6 81 26 0D 
19:14:06:0621 Rx 1 0x18DA21F1 x 8 25 EE 8F E6 F0 1B E1 04 
19:14:06:0624 Rx 1 0x18DA21F1 x 8 26 25 04 E6 8C 27 02 C6 
19:14:06:0627 Rx 1 0x18DA21F1 x 8 27 01 6B 81 EE 8F E6 07 
19:14:06:0630 Rx 1 0x18DA21F1 x 8 28 6B 82 18 69 89 E6 F0 
19:14:06:0633 Rx 1 0x18DA21F1 x 8 29 11 26 02 C7 8F C6 01 
19:14:06:0635 Rx 1 0x18DA21F1 x 8 2A 87 B7 45 EC 89 59 1A 
19:14:06:0638 Rx 1 0x18DA21F1 x 8 2B E6 6E 89 E6 81 26 02 
19:14:06:0641 Rx 1 0x18DA21F1 x 8 2C C7 8F C6 01 87 18 48 
19:14:06:0644 Rx 1 0x18DA21F1 x 8 2D 1A E6 6E 89 E6 82 26 
19:14:06:0647 Rx 1 0x18DA21F1 x 8 2E 02 C7 8F C6 01 87 18 
19:14:06:0650 Rx 1 0x18DA21F1 x 8 2F 48 1A E6 E6 E2 47 E8 
19:14:06:0653 Rx 1 0x18DA21F1 x 8 20 6B 87 E6 E2 47 F0 6B 
19:14:06:0656 Rx 1 0x18DA21F1 x 8 21 88 E6 F0 19 27 0D E6 
19:14:06:0658 Rx 1 0x18DA21F1 x 8 22 87 27 09 EE F0 17 C6 
19:14:06:0661 Rx 1 0x18DA21F1 x 8 23 01 6B 00 20 05 EE F0 
19:14:06:0664 Rx 1 0x18DA21F1 x 8 24 17 69 00 E6 F0 13 26 
19:14:06:0667 Rx 1 0x18DA21F1 x 8 25 0C E6 00 27 08 EE 84 
19:14:06:0670 Rx 1 0x18DA21F1 x 8 26 18 8A 00 04 20 06 EE 
19:14:06:0673 Rx 1 0x18DA21F1 x 8 27 84 18 84 FF FB 7E 39 
19:14:06:0676 Rx 1 0x18DA21F1 x 8 28 CA EE F0 17 E6 00 7B 
19:14:06:0679 Rx 1 0x18DA21F1 x 8 29 3A 8B F6 38 4B 27 02 
19:14:06:0682 Rx 1 0x18DA21F1 x 8 2A C7 8F C6 01 E4 00 7B 
19:14:06:0685 Rx 1 0x18DA21F1 x 8 2B 2A 85 1D 39 D5 80 E6 
19:14:06:0688 Rx 1 0x18DA21F1 x 8 2C 86 26 0D E6 8B 27 05 
19:14:06:0691 Rx 1 0x18DA21F1 x 8 2D E6 F0 22 27 04 E6 8E 
19:14:06:0694 Rx 1 0x18DA21F1 x 8 2E 27 02 C6 01 6B 86 27 
19:14:06:0697 Rx 1 0x18DA21F1 x 8 2F 05 E6 F0 1A 26 02 C7 
19:14:06:0700 Rx 1 0x18DA21F1 x 8 20 8F C6 01 04 41 02 20 
19:14:06:0702 Rx 1 0x18DA21F1 x 8 21 10 E6 86 26 0B E6 F0 
19:14:06:0705 Rx 1 0x18DA21F1 x 8 22 1A 27 06 E6 80 C1 01 
19:14:06:0708 Rx 1 0x18DA21F1 x 8 23 27 01 C7 6B 80 EE 8F 
19:14:06:0711 Rx 1 0x18DA21F1 x 8 24 E6 F0 1B 6B 00 E6 80 
19:14:06:0714 Rx 1 0x18DA21F1 x 8 25 E1 05 22 02 C7 8F C6 
19:14:06:0717 Rx 1 0x18DA21F1 x 8 26 01 87 B7 46 E6 01 19 
19:14:06:0720 Rx 1 0x18DA21F1 x 8 27 EE 6D 84 E6 84 27 05 
19:14:06:0723 Rx 1 0x18DA21F1 x 8 28 43 6A 01 20 04 E6 85 
19:14:06:0726 Rx 1 0x18DA21F1 x 8 29 6B 01 E6 F0 12 27 05 
19:14:06:0729 Rx 1 0x18DA21F1 x 8 2A C6 01 6B 06 8F 69 06 
19:14:06:0732 Rx 1 0x18DA21F1 x 8 2B E6 83 6B 02 6B 03 E6 
19:14:06:0734 Rx 1 0x18DA21F1 x 8 2C F0 1B 6B 04 E6 87 6B 
19:14:06:0737 Rx 1 0x18DA21F1 x 8 2D 07 E6 80 6B 05 1B F0 
19:14:06:0740 Rx 1 0x18DA21F1 x 8 2E 14 0A 6C AD F6 35 1A 
19:14:06:0743 Rx 1 0x18DA21F1 x 8 2F C1 7C 27 04 C1 7B 26 
19:14:06:0746 Rx 1 0x18DA21F1 x 8 20 05 C6 01 6B 82 8F 69 
19:14:06:0749 Rx 1 0x18DA21F1 x 8 21 82 E6 86 27 06 E6 87 
19:14:06:0752 Rx 1 0x18DA21F1 x 8 22 EA 82 26 02 C7 8F C6 
19:14:06:0755 Rx 1 0x18DA21F1 x 8 23 01 EE 80 6B 00 27 06 
19:14:06:0758 Rx 1 0x18DA21F1 x 8 24 1C 39 D1 04 20 04 1D 
19:14:06:0761 Rx 1 0x18DA21F1 x 8 25 39 D1 04 F6 38 47 27 
19:14:06:0764 Rx 1 0x18DA21F1 x 8 26 02 C7 8F C6 01 E4 00 
19:14:06:0767 Rx 1 0x18DA21F1 x 8 27 7B 2A 81 1B 83 0A 6C 
19:14:06:0769 Rx 1 0x18DA21F1 x 8 28 AA 6E AE 04 64 0C 26 
19:14:06:0772 Rx 1 0x18DA21F1 x 8 29 0A EC 8D 6C 86 EC 8B 
19:14:06:0775 Rx 1 0x18DA21F1 x 8 2A 6C 84 20 10 3B EC 82 
19:14:06:0778 Rx 1 0x18DA21F1 x 8 2B 3B EC F0 11 EE 8F 16 
19:14:06:0781 Rx 1 0x18DA21F1 x 8 2C 57 C1 6C 86 6E 84 EC 
19:14:06:0784 Rx 1 0x18DA21F1 x 8 2D 86 EE 84 1B 88 0A 6B 
19:14:06:0787 Rx 1 0x18DA21F1 x 8 2E AE 26 04 E6 85 20 07 
19:14:06:0790 Rx 1 0x18DA21F1 x 8 2F E6 85 A6 80 16 56 0F 
19:14:06:0793 Rx 1 0x18DA21F1 x 8 20 6B 81 30 0A 6C AC EC 
19:14:06:0796 Rx 1 0x18DA21F1 x 8 21 89 49 49 6C 82 EC 8B 
19:14:06:0798 Rx 1 0x18DA21F1 x 8 22 18 26 01 87 EE 80 EC 
19:14:06:0801 Rx 1 0x18DA21F1 x 8 23 00 26 4D 18 69 E0 18 
19:14:06:0804 Rx 1 0x18DA21F1 x 8 24 18 69 E0 34 18 69 E0 
19:14:06:0807 Rx 1 0x18DA21F1 x 8 25 22 16 92 10 18 69 E0 
19:14:06:0810 Rx 1 0x18DA21F1 x 8 26 1C 18 69 E0 30 18 69 
19:14:06:0813 Rx 1 0x18DA21F1 x 8 27 E0 2C EC 82 6C E0 2E 
19:14:06:0816 Rx 1 0x18DA21F1 x 8 28 18 69 E0 14 18 69 06 
19:14:06:0819 Rx 1 0x18DA21F1 x 8 29 18 69 E0 32 18 69 E0 
19:14:06:0822 Rx 1 0x18DA21F1 x 8 2A 10 18 69 08 18 69 0E 
19:14:06:0825 Rx 1 0x18DA21F1 x 8 2B 18 69 0A 18 69 E0 2A 
19:14:06:0828 Rx 1 0x18DA21F1 x 8 2C 18 69 E0 26 CD 00 01 
19:14:06:0830 Rx 1 0x18DA21F1 x 8 2D 6D 00 6C E0 16 6C E0 
19:14:06:0833 Rx 1 0x18DA21F1 x 8 2E 28 20 04 18 62 E0 14 
19:14:06:0836 Rx 1 0x18DA21F1 x 8 2F EC E0 16 AC 82 18 23 
19:14:06:0839 Rx 1 0x18DA21F1 x 8 20 00 91 A3 82 6C 82 EC 
19:14:06:0842 Rx 1 0x18DA21F1 x 8 21 E0 34 27 04 18 62 E0 
19:14:06:0845 Rx 1 0x18DA21F1 x 8 22 22 EC 82 AC E0 2E 23 
19:14:06:0848 Rx 1 0x18DA21F1 x 8 23 21 18 62 E0 18 16 92 
19:14:06:0851 Rx 1 0x18DA21F1 x 8 24 10 C6 01 87 6C E0 34 
19:14:06:0854 Rx 1 0x18DA21F1 x 8 25 ED E0 22 AD E0 1E 25 
19:14:06:0857 Rx 1 0x18DA21F1 x 8 26 60 6C E0 1C C7 6C E0 
19:14:06:0860 Rx 1 0x18DA21F1 x 8 27 34 6C E0 22 20 54 ED 
19:14:06:0862 Rx 1 0x18DA21F1 x 8 28 E0 1C 27 2E 18 62 E0 
19:14:06:0865 Rx 1 0x18DA21F1 x 8 29 20 EC E0 20 AC E0 24 
19:14:06:0868 Rx 1 0x18DA21F1 x 8 2A 25 1A 16 92 07 ED 87 
19:14:06:0871 Rx 1 0x18DA21F1 x 8 2B EC 46 E3 82 6C 46 18 
19:14:06:0874 Rx 1 0x18DA21F1 x 8 2C 69 E0 22 EC E0 16 A3 
19:14:06:0877 Rx 1 0x18DA21F1 x 8 2D 82 6C E0 16 18 69 82 
19:14:06:0880 Rx 1 0x18DA21F1 x 8 2E EC E0 14 6C E0 30 20 
19:14:06:0883 Rx 1 0x18DA21F1 x 8 2F 21 04 44 1E 18 62 E0 
19:14:06:0886 Rx 1 0x18DA21F1 x 8 20 1A EC E0 1A AC 04 25 
19:14:06:0899 Rx 1 0x18DA21F1 x 8 21 0D 16 92 07 C7 87 6C 
19:14:06:0902 Rx 1 0x18DA21F1 x 8 22 82 6C E0 2E 6C E0 1A 
19:14:06:0905 Rx 1 0x18DA21F1 x 8 23 EC E0 14 6C E0 2C EC 
19:14:06:0908 Rx 1 0x18DA21F1 x 8 24 82 6C E0 2E 06 91 F6 
19:14:06:0911 Rx 1 0x18DA21F1 x 8 25 EC 82 AC E0 16 23 F6 
19:14:06:0914 Rx 1 0x18DA21F1 x 8 26 A3 E0 16 6C 82 EC E0 
19:14:06:0917 Rx 1 0x18DA21F1 x 8 27 32 27 04 18 62 E0 10 
19:14:06:0920 Rx 1 0x18DA21F1 x 8 28 EC 82 AC E0 28 23 21 
19:14:06:0923 Rx 1 0x18DA21F1 x 8 29 18 62 06 18 69 08 18 
19:14:06:0926 Rx 1 0x18DA21F1 x 8 2A 69 0E C6 01 87 6C E0 
19:14:06:0929 Rx 1 0x18DA21F1 x 8 2B 32 ED E0 10 AD 0C 25 
19:14:06:0932 Rx 1 0x18DA21F1 x 8 2C 5F 6C 0A C7 6C E0 32 
19:14:06:0935 Rx 1 0x18DA21F1 x 8 2D 6C E0 10 20 54 ED 0A 
19:14:06:0938 Rx 1 0x18DA21F1 x 8 2E 27 2F 18 62 0E EC 0E 
19:14:06:0941 Rx 1 0x18DA21F1 x 8 2F AC E0 12 25 1D 18 69 
19:14:06:0944 Rx 1 0x18DA21F1 x 8 20 06 18 69 0E ED 87 EC 
19:14:06:0946 Rx 1 0x18DA21F1 x 8 21 44 E3 82 6C 44 18 69 
19:14:06:0949 Rx 1 0x18DA21F1 x 8 22 E0 10 EC E0 16 E3 82 
19:14:06:0952 Rx 1 0x18DA21F1 x 8 23 6C E0 16 18 69 82 EC 
19:14:06:0955 Rx 1 0x18DA21F1 x 8 24 E0 14 6C E0 2A 20 21 
19:14:06:0958 Rx 1 0x18DA21F1 x 8 25 04 44 1E 18 62 08 EC 
19:14:06:0961 Rx 1 0x18DA21F1 x 8 26 08 AC 02 25 0F 18 69 
19:14:06:0964 Rx 1 0x18DA21F1 x 8 27 06 18 69 0E C7 87 6C 
19:14:06:0967 Rx 1 0x18DA21F1 x 8 28 82 6C E0 28 6C 08 EC 
19:14:06:0970 Rx 1 0x18DA21F1 x 8 29 E0 14 6C E0 26 EC 82 
19:14:06:0973 Rx 1 0x18DA21F1 x 8 2A 6C E0 28 EE 87 EC 06 
19:14:06:0976 Rx 1 0x18DA21F1 x 8 2B 59 59 6C 00 EC 04 59 
19:14:06:0979 Rx 1 0x18DA21F1 x 8 2C 59 6C 02 1B 84 0A 18 
19:14:06:0982 Rx 1 0x18DA21F1 x 8 2D 69 E0 18 18 69 E0 20 
19:14:06:0985 Rx 1 0x18DA21F1 x 8 2E 3D 18 69 E0 1A 18 69 
19:14:06:0988 Rx 1 0x18DA21F1 x 8 2F E0 20 3D B7 45 69 00 
19:14:06:0991 Rx 1 0x18DA21F1 x 8 20 0A B7 45 69 01 0A 4A 
19:14:06:0994 Rx 1 0x18DA21F1 x 8 21 92 19 F6 0A 1B 90 3B 
19:14:06:0997 Rx 1 0x18DA21F1 x 8 22 E6 F0 31 18 27 04 45 
19:14:06:0999 Rx 1 0x18DA21F1 x 8 23 EE 80 E6 01 26 0C B7 
19:14:06:1002 Rx 1 0x18DA21F1 x 8 24 54 4A 92 19 F6 C6 01 
19:14:06:1005 Rx 1 0x18DA21F1 x 8 25 EE 80 6B 01 E6 F0 30 
19:14:06:1008 Rx 1 0x18DA21F1 x 8 26 27 0A E6 F0 2F 27 05 
19:14:06:1011 Rx 1 0x18DA21F1 x 8 27 FC 13 44 26 02 C7 8F 
19:14:06:1014 Rx 1 0x18DA21F1 x 8 28 C6 01 6B 83 27 06 1C 
19:14:06:1017 Rx 1 0x18DA21F1 x 8 29 39 CA 80 20 04 1D 39 
19:14:06:1020 Rx 1 0x18DA21F1 x 8 2A CA 80 04 41 06 1C 39 
19:14:06:1023 Rx 1 0x18DA21F1 x 8 2B CD 40 20 04 1D 39 CD 
19:14:06:1026 Rx 1 0x18DA21F1 x 8 2C 40 E6 F0 2E 27 05 F6 
19:14:06:1029 Rx 1 0x18DA21F1 x 8 2D 13 4D 26 02 C7 8F C6 
19:14:06:1032 Rx 1 0x18DA21F1 x 8 2E 01 6B 84 E6 F0 30 27 
19:14:06:1035 Rx 1 0x18DA21F1 x 8 2F 21 E6 F0 21 C1 FA 22 
19:14:06:1038 Rx 1 0x18DA21F1 x 8 20 1A E6 84 27 08 FC 14 
19:14:06:1041 Rx 1 0x18DA21F1 x 8 21 10 AC F0 21 23 02 C7 
19:14:06:1044 Rx 1 0x18DA21F1 x 8 22 8F C6 01 6B 82 27 06 
19:14:06:1047 Rx 1 0x18DA21F1 x 8 23 1C 39 D5 20 20 04 1D 
19:14:06:1050 Rx 1 0x18DA21F1 x 8 24 39 D5 20 E6 F0 2D 27 
19:14:06:1053 Rx 1 0x18DA21F1 x 8 25 05 FC 13 8C 26 02 C7 
19:14:06:1056 Rx 1 0x18DA21F1 x 8 26 8F C6 01 6B 8E E6 F0 
19:14:06:1059 Rx 1 0x18DA21F1 x 8 27 30 27 21 E6 F0 21 C1 
19:14:06:1061 Rx 1 0x18DA21F1 x 8 28 FA 22 1A E6 8E 27 08 
19:14:06:1064 Rx 1 0x18DA21F1 x 8 29 FC 14 12 AC F0 21 23 
19:14:06:1067 Rx 1 0x18DA21F1 x 8 2A 02 C7 8F C6 01 6B 82 
19:14:06:1070 Rx 1 0x18DA21F1 x 8 2B 27 06 1C 39 D5 40 20 
19:14:06:1073 Rx 1 0x18DA21F1 x 8 2C 04 1D 39 D5 40 E6 F0 
19:14:06:1076 Rx 1 0x18DA21F1 x 8 2D 30 27 0C E6 84 6B 82 
19:14:06:1079 Rx 1 0x18DA21F1 x 8 2E 27 06 1C 39 CA 40 20 
19:14:06:1082 Rx 1 0x18DA21F1 x 8 2F 04 1D 39 CA 40 E6 F0 
19:14:06:1085 Rx 1 0x18DA21F1 x 8 20 30 27 05 E6 F0 2C 26 
19:14:06:1088 Rx 1 0x18DA21F1 x 8 21 02 C7 8F C6 01 04 41 
19:14:06:1091 Rx 1 0x18DA21F1 x 8 22 06 1C 39 C9 40 20 04 
19:14:06:1094 Rx 1 0x18DA21F1 x 8 23 1D 39 C9 40 E6 F0 30 
19:14:06:1096 Rx 1 0x18DA21F1 x 8 24 27 05 E6 F0 2B 26 02 
19:14:06:1099 Rx 1 0x18DA21F1 x 8 25 C7 8F C6 01 04 41 06 
19:14:06:1102 Rx 1 0x18DA21F1 x 8 26 1C 39 C9 80 20 04 1D 
19:14:06:1105 Rx 1 0x18DA21F1 x 8 27 39 C9 80 E6 F0 30 27 
19:14:06:1108 Rx 1 0x18DA21F1 x 8 28 0F E6 F0 2A 27 0A FC 
19:14:06:1111 Rx 1 0x18DA21F1 x 8 29 13 5E 27 05 FC 13 E0 
19:14:06:1114 Rx 1 0x18DA21F1 x 8 2A 26 02 C7 8F C6 01 04 
19:14:06:1117 Rx 1 0x18DA21F1 x 8 2B 41 06 1C 39 D0 40 20 
19:14:06:1120 Rx 1 0x18DA21F1 x 8 2C 04 1D 39 D0 40 E6 F0 
19:14:06:1123 Rx 1 0x18DA21F1 x 8 2D 29 27 0A E6 F0 30 27 
19:14:06:1126 Rx 1 0x18DA21F1 x 8 2E 05 FC 13 5A 26 02 C7 
19:14:06:1129 Rx 1 0x18DA21F1 x 8 2F 8F C6 01 6B 82 27 06 
19:14:06:1132 Rx 1 0x18DA21F1 x 8 20 1C 39 D1 10 20 04 1D 
19:14:06:1135 Rx 1 0x18DA21F1 x 8 21 39 D1 10 04 41 06 1C 
19:14:06:1138 Rx 1 0x18DA21F1 x 8 22 39 CD 80 20 04 00 00 
19:14:06:1143 Rx 1 0x18DAF121 x 8 03 7F 36 78 00 00 00 00 
19:14:06:1693 Rx 1 0x18DAF121 x 8 02 76 04 78 00 00 00 00

 
19:14:06:4431 Rx 1 0x18DA21F1 x 8 14 E2 36 05 1D 39 CD 80 
19:14:06:4435 Rx 1 0x18DAF121 x 8 30 00 00 00 00 00 00 00 
19:14:06:4439 Rx 1 0x18DA21F1 x 8 21 FC 13 E2 27 07 E6 F0 
19:14:06:4442 Rx 1 0x18DA21F1 x 8 22 28 6B 82 20 08 F6 35 
19:14:06:4445 Rx 1 0x18DA21F1 x 8 23 18 04 01 11 69 82 E6 
19:14:06:4448 Rx 1 0x18DA21F1 x 8 24 82 26 0B EC F0 26 49 
19:14:06:4451 Rx 1 0x18DA21F1 x 8 25 49 49 BC 13 F4 22 0A 
19:14:06:4454 Rx 1 0x18DA21F1 x 8 26 E6 F0 30 27 05 FC 13 
19:14:06:4457 Rx 1 0x18DA21F1 x 8 27 70 26 02 C7 8F C6 01 
19:14:06:4460 Rx 1 0x18DA21F1 x 8 28 04 41 06 1C 39 C8 04 
19:14:06:4463 Rx 1 0x18DA21F1 x 8 29 20 04 1D 39 C8 04 E6 
19:14:06:4466 Rx 1 0x18DA21F1 x 8 2A F0 30 27 05 E6 F0 25 
19:14:06:4469 Rx 1 0x18DA21F1 x 8 2B 27 02 C7 8F C6 01 04 
19:14:06:4472 Rx 1 0x18DA21F1 x 8 2C 41 06 1C 39 CB 20 20 
19:14:06:4475 Rx 1 0x18DA21F1 x 8 2D 04 1D 39 CB 20 E6 F0 
19:14:06:4478 Rx 1 0x18DA21F1 x 8 2E 24 27 0A E6 F0 30 27 
19:14:06:4480 Rx 1 0x18DA21F1 x 8 2F 05 FC 13 6A 26 02 C7 
19:14:06:4483 Rx 1 0x18DA21F1 x 8 20 8F C6 01 04 41 06 1C 
19:14:06:4486 Rx 1 0x18DA21F1 x 8 21 39 D3 02 20 04 1D 39 
19:14:06:4489 Rx 1 0x18DA21F1 x 8 22 D3 02 F6 34 D2 EA F0 
19:14:06:4492 Rx 1 0x18DA21F1 x 8 23 23 27 02 C6 01 6B 84 
19:14:06:4495 Rx 1 0x18DA21F1 x 8 24 27 06 1C 39 CD 02 20 
19:14:06:4498 Rx 1 0x18DA21F1 x 8 25 04 1D 39 CD 02 E6 F0 
19:14:06:4501 Rx 1 0x18DA21F1 x 8 26 21 C1 FA 22 1A E6 84 
19:14:06:4504 Rx 1 0x18DA21F1 x 8 27 27 08 FC 14 1A AC F0 
19:14:06:4507 Rx 1 0x18DA21F1 x 8 28 21 25 02 C7 8F C6 01 
19:14:06:4510 Rx 1 0x18DA21F1 x 8 29 6B 82 27 06 1C 39 D4 
19:14:06:4513 Rx 1 0x18DA21F1 x 8 2A 10 20 04 1D 39 D4 10 
19:14:06:4516 Rx 1 0x18DA21F1 x 8 2B E6 F0 30 27 0C E6 8E 
19:14:06:4518 Rx 1 0x18DA21F1 x 8 2C 6B 82 27 06 1C 39 CA 
19:14:06:4521 Rx 1 0x18DA21F1 x 8 2D 10 20 04 1D 39 CA 10 
19:14:06:4524 Rx 1 0x18DA21F1 x 8 2E F6 35 16 26 05 C6 01 
19:14:06:4527 Rx 1 0x18DA21F1 x 8 2F 6B 82 8F 69 82 E6 F0 
19:14:06:4530 Rx 1 0x18DA21F1 x 8 20 20 EA 82 27 0A E6 F0 
19:14:06:4533 Rx 1 0x18DA21F1 x 8 21 30 27 05 FC 13 8E 26 
19:14:06:4536 Rx 1 0x18DA21F1 x 8 22 02 C7 8F C6 01 04 41 
19:14:06:4539 Rx 1 0x18DA21F1 x 8 23 06 1C 39 CD 10 20 04 
19:14:06:4542 Rx 1 0x18DA21F1 x 8 24 1D 39 CD 10 E6 F0 1F 
19:14:06:4545 Rx 1 0x18DA21F1 x 8 25 27 0A E6 F0 30 27 05 
19:14:06:4548 Rx 1 0x18DA21F1 x 8 26 FC 13 92 26 02 C7 8F 
19:14:06:4551 Rx 1 0x18DA21F1 x 8 27 C6 01 04 41 06 1C 39 
19:14:06:4554 Rx 1 0x18DA21F1 x 8 28 D1 20 20 04 1D 39 D1 
19:14:06:4557 Rx 1 0x18DA21F1 x 8 29 20 E6 F0 30 27 0A E6 
19:14:06:4559 Rx 1 0x18DA21F1 x 8 2A F0 1E 27 05 FC 13 94 
19:14:06:4562 Rx 1 0x18DA21F1 x 8 2B 26 02 C7 8F C6 01 04 
19:14:06:4565 Rx 1 0x18DA21F1 x 8 2C 41 06 1C 39 D1 40 20 
19:14:06:4568 Rx 1 0x18DA21F1 x 8 2D 04 1D 39 D1 40 FC 13 
19:14:06:4571 Rx 1 0x18DA21F1 x 8 2E DE 27 07 E6 F0 1D 6B 
19:14:06:4574 Rx 1 0x18DA21F1 x 8 2F 82 20 08 F6 39 FC 04 
19:14:06:4577 Rx 1 0x18DA21F1 x 8 20 01 06 69 82 E6 82 27 
19:14:06:4580 Rx 1 0x18DA21F1 x 8 21 0A E6 F0 30 27 05 FC 
19:14:06:4583 Rx 1 0x18DA21F1 x 8 22 13 98 26 02 C7 8F C6 
19:14:06:4586 Rx 1 0x18DA21F1 x 8 23 01 7B 3A 08 27 06 1C 
19:14:06:4589 Rx 1 0x18DA21F1 x 8 24 39 CD 04 20 04 1D 39 
19:14:06:4592 Rx 1 0x18DA21F1 x 8 25 CD 04 F6 39 F6 6B 82 
19:14:06:4595 Rx 1 0x18DA21F1 x 8 26 27 06 1C 39 CA 04 20 
19:14:06:4598 Rx 1 0x18DA21F1 x 8 27 04 1D 39 CA 04 FC 39 
19:14:06:4600 Rx 1 0x18DA21F1 x 8 28 D0 6C 8C EC F0 1B 59 
19:14:06:4603 Rx 1 0x18DA21F1 x 8 29 59 59 AC F0 26 23 02 
19:14:06:4606 Rx 1 0x18DA21F1 x 8 2A C7 8F C6 01 6B 83 EC 
19:14:06:4609 Rx 1 0x18DA21F1 x 8 2B F0 26 8C 57 80 23 02 
19:14:06:4612 Rx 1 0x18DA21F1 x 8 2C C7 8F C6 01 6B F0 11 
19:14:06:4615 Rx 1 0x18DA21F1 x 8 2D E6 00 6B 87 18 69 8A 
19:14:06:4618 Rx 1 0x18DA21F1 x 8 2E E6 83 26 02 C7 8F C6 
19:14:06:4621 Rx 1 0x18DA21F1 x 8 2F 01 87 B7 45 EC 8A 59 
19:14:06:4624 Rx 1 0x18DA21F1 x 8 20 1A E6 6E 8A E6 F0 11 
19:14:06:4627 Rx 1 0x18DA21F1 x 8 21 26 02 C7 8F C6 01 87 
19:14:06:4629 Rx 1 0x18DA21F1 x 8 22 18 48 1A E6 6E 8A E6 
19:14:06:4632 Rx 1 0x18DA21F1 x 8 23 87 26 02 C7 8F C6 01 
19:14:06:4635 Rx 1 0x18DA21F1 x 8 24 87 18 48 1A E6 E6 E2 
19:14:06:4638 Rx 1 0x18DA21F1 x 8 25 47 E8 6B 88 E6 E2 47 
19:14:06:4641 Rx 1 0x18DA21F1 x 8 26 F0 6B 89 E6 82 04 01 
19:14:06:4644 Rx 1 0x18DA21F1 x 8 27 0A E6 F0 30 27 05 E6 
19:14:06:4647 Rx 1 0x18DA21F1 x 8 28 F0 1A 27 02 C7 8F C6 
19:14:06:4650 Rx 1 0x18DA21F1 x 8 29 01 6B 87 FC 14 6C 27 
19:14:06:4653 Rx 1 0x18DA21F1 x 8 2A 04 E6 F0 19 8F C6 01 
19:14:06:4656 Rx 1 0x18DA21F1 x 8 2B 87 6C 85 FC 14 6C 27 
19:14:06:4659 Rx 1 0x18DA21F1 x 8 2C 05 E6 F0 18 20 0A F6 
19:14:06:4662 Rx 1 0x18DA21F1 x 8 2D 39 F7 04 01 02 C7 8F 
19:14:06:4665 Rx 1 0x18DA21F1 x 8 2E C6 01 87 6C 8F FC 14 
19:14:06:4667 Rx 1 0x18DA21F1 x 8 2F 50 8C 00 02 27 02 C7 
19:14:06:4670 Rx 1 0x18DA21F1 x 8 20 8F C6 01 6B 82 E6 87 
19:14:06:4673 Rx 1 0x18DA21F1 x 8 21 27 0A FC 13 60 27 05 
19:14:06:4676 Rx 1 0x18DA21F1 x 8 22 E6 F0 18 26 02 C7 8F 
19:14:06:4679 Rx 1 0x18DA21F1 x 8 23 C6 01 6B 84 E6 88 27 
19:14:06:4682 Rx 1 0x18DA21F1 x 8 24 0E EC F0 26 8C FB 00 
19:14:06:4685 Rx 1 0x18DA21F1 x 8 25 25 02 C7 8F C6 01 20 
19:14:06:4688 Rx 1 0x18DA21F1 x 8 26 26 E6 82 27 20 FC 13 
19:14:06:4691 Rx 1 0x18DA21F1 x 8 27 60 27 17 E6 87 27 0D 
19:14:06:4694 Rx 1 0x18DA21F1 x 8 28 FC 13 60 27 08 EC 85 
19:14:06:4697 Rx 1 0x18DA21F1 x 8 29 27 04 EC 8F 26 02 C7 
19:14:06:4700 Rx 1 0x18DA21F1 x 8 2A 8F C6 01 20 06 EC 8F 
19:14:06:4703 Rx 1 0x18DA21F1 x 8 2B 20 03 E6 84 87 6C 85 
19:14:06:4705 Rx 1 0x18DA21F1 x 8 2C EE F0 15 E6 86 6B 00 
19:14:06:4708 Rx 1 0x18DA21F1 x 8 2D 27 08 EE 8C 18 8A 02 
19:14:06:4711 Rx 1 0x18DA21F1 x 8 2E 00 20 06 EE 8C 18 84 
19:14:06:4714 Rx 1 0x18DA21F1 x 8 2F FD FF 7E 39 D0 E6 82 
19:14:06:4717 Rx 1 0x18DA21F1 x 8 20 27 04 EC 8F 20 03 E6 
19:14:06:4720 Rx 1 0x18DA21F1 x 8 21 84 87 6C 85 27 06 1C 
19:14:06:4723 Rx 1 0x18DA21F1 x 8 22 39 CF 02 20 04 1D 39 
19:14:06:4726 Rx 1 0x18DA21F1 x 8 23 CF 02 F6 38 52 27 02 
19:14:06:4729 Rx 1 0x18DA21F1 x 8 24 C7 8F C6 01 EE F0 15 
19:14:06:4732 Rx 1 0x18DA21F1 x 8 25 E4 00 7B 2A 8C F6 35 
19:14:06:4735 Rx 1 0x18DA21F1 x 8 26 14 C1 01 26 03 6B 82 
19:14:06:4738 Rx 1 0x18DA21F1 x 8 27 8F 69 82 E6 F0 17 EA 
19:14:06:4741 Rx 1 0x18DA21F1 x 8 28 82 27 05 E6 F0 30 26 
19:14:06:4744 Rx 1 0x18DA21F1 x 8 29 02 C7 8F C6 01 6B 01 
19:14:06:4746 Rx 1 0x18DA21F1 x 8 2A 27 06 1C 39 D0 20 20 
19:14:06:4749 Rx 1 0x18DA21F1 x 8 2B 04 1D 39 D0 20 EE 80 
19:14:06:4752 Rx 1 0x18DA21F1 x 8 2C E6 88 6B 00 20 0C EE 
19:14:06:4755 Rx 1 0x18DA21F1 x 8 2D 80 E6 01 27 06 B7 54 
19:14:06:4758 Rx 1 0x18DA21F1 x 8 2E 4A 92 1E F6 1B F0 12 
19:14:06:4761 Rx 1 0x18DA21F1 x 8 2F 0A 3B C6 01 87 EE 80 
19:14:06:4764 Rx 1 0x18DA21F1 x 8 20 6C 02 6A 04 C7 6C 00 
19:14:06:4767 Rx 1 0x18DA21F1 x 8 21 EE 85 6B 02 3A 0A B7 
19:14:06:4770 Rx 1 0x18DA21F1 x 8 22 45 69 05 0A 3B EC 85 
19:14:06:4773 Rx 1 0x18DA21F1 x 8 23 3B EC 82 4A 96 87 F6 
19:14:06:4776 Rx 1 0x18DA21F1 x 8 24 1B 84 0A 1B 99 3B E6 
19:14:06:4779 Rx 1 0x18DA21F1 x 8 25 F0 13 18 27 01 0F EE 
19:14:06:4781 Rx 1 0x18DA21F1 x 8 26 80 E6 05 26 0F EC 8C 
19:14:06:4784 Rx 1 0x18DA21F1 x 8 27 3B B7 54 4A 96 87 F6 
19:14:06:4787 Rx 1 0x18DA21F1 x 8 28 C6 01 EE A1 6B 05 E6 
19:14:06:4790 Rx 1 0x18DA21F1 x 8 29 F0 12 27 05 E6 F0 11 
19:14:06:4793 Rx 1 0x18DA21F1 x 8 2A 26 02 C7 8F C6 01 7B 
19:14:06:4796 Rx 1 0x18DA21F1 x 8 2B 2A 89 E6 F0 12 27 05 
19:14:06:4799 Rx 1 0x18DA21F1 x 8 2C E6 F0 10 26 02 C7 8F 
19:14:06:4802 Rx 1 0x18DA21F1 x 8 2D C6 01 6B 83 E6 F0 12 
19:14:06:4805 Rx 1 0x18DA21F1 x 8 2E 27 04 E6 8F 26 02 C7 
19:14:06:4808 Rx 1 0x18DA21F1 x 8 2F 8F C6 01 EE 8C 6B 00 
19:14:06:4811 Rx 1 0x18DA21F1 x 8 20 EE 80 E6 F0 12 E1 02 
19:14:06:4813 Rx 1 0x18DA21F1 x 8 21 26 02 C7 8F C6 01 6B 
19:14:06:4816 Rx 1 0x18DA21F1 x 8 22 88 26 04 E6 03 27 04 
19:14:06:4819 Rx 1 0x18DA21F1 x 8 23 69 82 20 04 E6 04 6B 
19:14:06:4822 Rx 1 0x18DA21F1 x 8 24 82 E6 82 87 C3 00 01 
19:14:06:4825 Rx 1 0x18DA21F1 x 8 25 6C 85 E6 85 27 03 C6 
19:14:06:4828 Rx 1 0x18DA21F1 x 8 26 FF 8F E6 86 6B 82 69 
19:14:06:4831 Rx 1 0x18DA21F1 x 8 27 84 69 87 18 62 00 EC 
19:14:06:4834 Rx 1 0x18DA21F1 x 8 28 00 8C 00 05 22 06 C6 
19:14:06:4837 Rx 1 0x18DA21F1 x 8 29 01 6B 84 20 0C ED 00 
19:14:06:4840 Rx 1 0x18DA21F1 x 8 2A 19 5A 8D 00 35 23 07 
19:14:06:4843 Rx 1 0x18DA21F1 x 8 2B 18 69 00 E6 87 27 04 
19:14:06:4845 Rx 1 0x18DA21F1 x 8 2C EE 8C 69 02 E6 84 27 
19:14:06:4848 Rx 1 0x18DA21F1 x 8 2D 06 EE 8C C6 01 6B 02 
19:14:06:4851 Rx 1 0x18DA21F1 x 8 2E EE 8C E6 00 26 29 E6 
19:14:06:4854 Rx 1 0x18DA21F1 x 8 2F F0 12 27 04 E6 8E 26 
19:14:06:4857 Rx 1 0x18DA21F1 x 8 20 1A F6 2A 89 27 19 A6 
19:14:06:4860 Rx 1 0x18DA21F1 x 8 21 83 26 15 A6 00 26 11 
19:14:06:4863 Rx 1 0x18DA21F1 x 8 22 A6 82 81 06 25 03 6B 
19:14:06:4866 Rx 1 0x18DA21F1 x 8 23 83 8F 69 83 20 04 E6 
19:14:06:4869 Rx 1 0x18DA21F1 x 8 24 02 6B 83 E6 83 6B 01 
19:14:06:4872 Rx 1 0x18DA21F1 x 8 25 F6 38 57 27 02 C7 8F 
19:14:06:4875 Rx 1 0x18DA21F1 x 8 26 C6 01 E4 01 7B 2A 91 
19:14:06:4877 Rx 1 0x18DA21F1 x 8 27 F6 38 56 27 02 C7 8F 
19:14:06:4880 Rx 1 0x18DA21F1 x 8 28 C6 01 E4 00 7B 2A 90 
19:14:06:4883 Rx 1 0x18DA21F1 x 8 29 E6 88 27 06 EE 80 69 
19:14:06:4886 Rx 1 0x18DA21F1 x 8 2A 04 20 06 EE 80 E6 82 
19:14:06:4900 Rx 1 0x18DA21F1 x 8 2B 6B 04 E6 F0 12 6B 02 
19:14:06:4903 Rx 1 0x18DA21F1 x 8 2C 69 03 20 0C EE 80 E6 
19:14:06:4906 Rx 1 0x18DA21F1 x 8 2D 05 27 06 B7 54 4A 96 
19:14:06:4909 Rx 1 0x18DA21F1 x 8 2E 9A F6 1B 89 0A 6C AC 
19:14:06:4912 Rx 1 0x18DA21F1 x 8 2F 34 1A 84 B7 54 16 52 
19:14:06:4914 Rx 1 0x18DA21F1 x 8 20 74 EC A3 30 0A 1B 9C 
19:14:06:4917 Rx 1 0x18DA21F1 x 8 21 6C 82 6E 80 0D 80 80 
19:14:06:4921 Rx 1 0x18DA21F1 x 8 22 EC 82 EE 80 1B 84 0A 
19:14:06:4923 Rx 1 0x18DA21F1 x 8 23 1B 9C 6C 82 6E 80 04 
19:14:06:4926 Rx 1 0x18DA21F1 x 8 24 64 0B EC 80 8C FF 80 
19:14:06:4929 Rx 1 0x18DA21F1 x 8 25 26 04 C6 03 20 25 EC 
19:14:06:4932 Rx 1 0x18DA21F1 x 8 26 82 26 0B EC 80 8C 7F 
19:14:06:4935 Rx 1 0x18DA21F1 x 8 27 80 26 04 C6 02 20 16 
19:14:06:4938 Rx 1 0x18DA21F1 x 8 28 EC 80 C4 80 84 7F CE 
19:14:06:4941 Rx 1 0x18DA21F1 x 8 29 00 00 34 CD 7F 80 35 
19:14:06:4944 Rx 1 0x18DA21F1 x 8 2A B7 C5 16 56 7C 26 01 
19:14:06:4947 Rx 1 0x18DA21F1 x 8 2B 52 1B 84 0A 3B 6E AE 
19:14:06:4950 Rx 1 0x18DA21F1 x 8 2C 1B 90 04 64 05 26 03 
19:14:06:4953 Rx 1 0x18DA21F1 x 8 2D 06 98 D2 3B EC F0 12 
19:14:06:4956 Rx 1 0x18DA21F1 x 8 2E 3B 1A 8E B7 54 16 52 
19:14:06:4959 Rx 1 0x18DA21F1 x 8 2F 74 1B 84 6C 88 6E 86 
19:14:06:4962 Rx 1 0x18DA21F1 x 8 20 CD 14 BA 35 CD 3F 17 
19:14:06:4965 Rx 1 0x18DA21F1 x 8 21 35 16 55 10 CD A9 A8 
19:14:06:4968 Rx 1 0x18DA21F1 x 8 22 6D A1 CD 3E D5 00 00 
19:14:06:4973 Rx 1 0x18DAF121 x 8 03 7F 36 78 00 00 00 00 
19:14:06:5523 Rx 1 0x18DAF121 x 8 02 76 05 78 00 00 00 00 


19:14:06:8224 Rx 1 0x18DA21F1 x 8 14 E2 36 06 35 16 52 E1 
19:14:06:8228 Rx 1 0x18DAF121 x 8 30 00 00 00 00 00 00 00 
19:14:06:8233 Rx 1 0x18DA21F1 x 8 21 1B 84 07 6E 6C 8E 6E 
19:14:06:8236 Rx 1 0x18DA21F1 x 8 22 8C 3B 34 CC FF FE 16 
19:14:06:8239 Rx 1 0x18DA21F1 x 8 23 52 77 1B 84 ED 8E 35 
19:14:06:8241 Rx 1 0x18DA21F1 x 8 24 ED 8E 35 B7 46 EC 8C 
19:14:06:8244 Rx 1 0x18DA21F1 x 8 25 6E 84 EE 8A 16 55 24 
19:14:06:8247 Rx 1 0x18DA21F1 x 8 26 6C A1 34 B7 64 EE 84 
19:14:06:8250 Rx 1 0x18DA21F1 x 8 27 16 52 E1 1B 84 07 41 
19:14:06:8253 Rx 1 0x18DA21F1 x 8 28 3B 34 CC FF FF 16 52 
19:14:06:8256 Rx 1 0x18DA21F1 x 8 29 77 1B 84 6C 84 6E 82 
19:14:06:8259 Rx 1 0x18DA21F1 x 8 2A 0F 8B 01 1A CC 04 F3 
19:14:06:8264 Rx 1 0x18DA21F1 x 8 2B 3B CE 3F 35 34 EC 88 
19:14:06:8267 Rx 1 0x18DA21F1 x 8 2C EE 86 16 55 10 1B 84 
19:14:06:8270 Rx 1 0x18DA21F1 x 8 2D 6C 84 6E 82 EE 8A 08 
19:14:06:8273 Rx 1 0x18DA21F1 x 8 2E 6E 8A 67 8A 66 8B EC 
19:14:06:8276 Rx 1 0x18DA21F1 x 8 2F 84 3B EC 84 3B EC 8E 
19:14:06:8279 Rx 1 0x18DA21F1 x 8 20 16 52 77 1B 84 1B F0 
19:14:06:8281 Rx 1 0x18DA21F1 x 8 21 14 0A 3B 34 B7 46 EC 
19:14:06:8284 Rx 1 0x18DA21F1 x 8 22 8E 6E 86 EE 8C 16 55 
19:14:06:8287 Rx 1 0x18DA21F1 x 8 23 24 6D A1 ED 84 35 16 
19:14:06:8290 Rx 1 0x18DA21F1 x 8 24 52 E1 1B 84 3D 3B 34 
19:14:06:8293 Rx 1 0x18DA21F1 x 8 25 4A 97 F2 F6 04 41 1C 
19:14:06:8296 Rx 1 0x18DA21F1 x 8 26 C1 03 22 2A 53 87 16 
19:14:06:8299 Rx 1 0x18DA21F1 x 8 27 57 EA 03 23 03 09 15 
19:14:06:8302 Rx 1 0x18DA21F1 x 8 28 EC 82 EE 80 20 22 FC 
19:14:06:8305 Rx 1 0x18DA21F1 x 8 29 47 FA FE 47 F8 20 1A 
19:14:06:8308 Rx 1 0x18DA21F1 x 8 2A 0F 80 80 0E C6 01 87 
19:14:06:8310 Rx 1 0x18DA21F1 x 8 2B 7C 13 42 FC 47 FE FE 
19:14:06:8313 Rx 1 0x18DA21F1 x 8 2C 47 FC 20 08 EC 82 EE 
19:14:06:8316 Rx 1 0x18DA21F1 x 8 2D 80 4A 98 2E F6 1B 84 
19:14:06:8319 Rx 1 0x18DA21F1 x 8 2E 0A 37 EC 86 EE 84 4A 
19:14:06:8322 Rx 1 0x18DA21F1 x 8 2F 97 E2 F6 6C 86 6E 84 
19:14:06:8325 Rx 1 0x18DA21F1 x 8 20 E6 80 27 09 EC 86 16 
19:14:06:8328 Rx 1 0x18DA21F1 x 8 21 53 09 6C 86 6E 84 EC 
19:14:06:8331 Rx 1 0x18DA21F1 x 8 22 86 EE 84 1B 81 0A 1B 
19:14:06:8334 Rx 1 0x18DA21F1 x 8 23 F1 EE 3B 6E AE 1B 93 
19:14:06:8339 Rx 1 0x18DA21F1 x 8 24 04 64 18 26 16 EC F0 
19:14:06:8344 Rx 1 0x18DA21F1 x 8 25 28 26 11 EC F0 26 26 
19:14:06:8350 Rx 1 0x18DA21F1 x 8 26 0C C6 01 87 7C 13 42 
19:14:06:8356 Rx 1 0x18DA21F1 x 8 27 B7 05 C7 06 9D F6 0E 
19:14:06:8362 Rx 1 0x18DA21F1 x 8 28 F0 26 80 02 C7 8F C6 
19:14:06:8365 Rx 1 0x18DA21F1 x 8 29 01 6B 86 A6 86 6A F0 
19:14:06:8367 Rx 1 0x18DA21F1 x 8 2A 1D 0E 8D 80 05 C7 6B 
19:14:06:8370 Rx 1 0x18DA21F1 x 8 2B 86 20 04 86 01 6A 86 
19:14:06:8373 Rx 1 0x18DA21F1 x 8 2C A6 86 6A F0 1E 16 9E 
19:14:06:8376 Rx 1 0x18DA21F1 x 8 2D 46 4A 97 F2 F6 04 41 
19:14:06:8379 Rx 1 0x18DA21F1 x 8 2E 47 C1 03 22 43 53 87 
19:14:06:8382 Rx 1 0x18DA21F1 x 8 2F 16 57 EA 03 3C 54 03 
19:14:06:8385 Rx 1 0x18DA21F1 x 8 20 03 16 9E 38 4A 97 F2 
19:14:06:8388 Rx 1 0x18DA21F1 x 8 21 F6 04 41 15 E6 F0 1E 
19:14:06:8391 Rx 1 0x18DA21F1 x 8 22 27 08 CD CB E4 CC 40 
19:14:06:8394 Rx 1 0x18DA21F1 x 8 23 16 20 06 CD 0F DB CC 
19:14:06:8396 Rx 1 0x18DA21F1 x 8 24 3F 49 20 13 E6 F0 1E 
19:14:06:8399 Rx 1 0x18DA21F1 x 8 25 27 08 CD 0F DB CC 40 
19:14:06:8402 Rx 1 0x18DA21F1 x 8 26 49 20 06 C7 87 B7 45 
19:14:06:8405 Rx 1 0x18DA21F1 x 8 27 B7 56 6C 87 35 EE 89 
19:14:06:8408 Rx 1 0x18DA21F1 x 8 28 20 6D 16 9E 38 4A 97 
19:14:06:8411 Rx 1 0x18DA21F1 x 8 29 F2 F6 04 41 15 C1 03 
19:14:06:8414 Rx 1 0x18DA21F1 x 8 2A 22 11 53 87 16 57 EA 
19:14:06:8417 Rx 1 0x18DA21F1 x 8 2B 03 0A 03 08 08 16 9E 
19:14:06:8420 Rx 1 0x18DA21F1 x 8 2C 38 20 35 20 47 EC 8F 
19:14:06:8423 Rx 1 0x18DA21F1 x 8 2D 26 1D EC 8D 8C 3F 80 
19:14:06:8425 Rx 1 0x18DA21F1 x 8 2E 26 16 EC F0 28 3B EC 
19:14:06:8428 Rx 1 0x18DA21F1 x 8 2F F0 28 3B C7 4A 99 30 
19:14:06:8431 Rx 1 0x18DA21F1 x 8 20 F6 1B 84 16 9E 3F 6C 
19:14:06:8434 Rx 1 0x18DA21F1 x 8 21 8B 20 76 EC F0 28 26 
19:14:06:8437 Rx 1 0x18DA21F1 x 8 22 19 EE F0 26 26 14 E6 
19:14:06:8440 Rx 1 0x18DA21F1 x 8 23 F0 1E 26 06 EC F0 28 
19:14:06:8443 Rx 1 0x18DA21F1 x 8 24 06 9D F6 CC 0F DB 3B 
19:14:06:8446 Rx 1 0x18DA21F1 x 8 25 CE 40 49 20 0F EC 8F 
19:14:06:8449 Rx 1 0x18DA21F1 x 8 26 26 0F EC 8D 26 0B CC 
19:14:06:8452 Rx 1 0x18DA21F1 x 8 27 0F DB 3B CE 3F C9 34 
19:14:06:8455 Rx 1 0x18DA21F1 x 8 28 06 9D ED 16 9E 46 4A 
19:14:06:8457 Rx 1 0x18DA21F1 x 8 29 97 E2 F6 6C 8F 6E 8D 
19:14:06:8460 Rx 1 0x18DA21F1 x 8 2A 16 9E 38 4A 97 E2 F6 
19:14:06:8463 Rx 1 0x18DA21F1 x 8 2B 16 9E 3F 4A 97 D4 F6 
19:14:06:8466 Rx 1 0x18DA21F1 x 8 2C 6C F0 1F 16 9E 46 4A 
19:14:06:8469 Rx 1 0x18DA21F1 x 8 2D 97 D4 F6 3B EC F0 21 
19:14:06:8472 Rx 1 0x18DA21F1 x 8 2E A3 80 6C F0 23 8C 00 
19:14:06:8475 Rx 1 0x18DA21F1 x 8 2F 3C 1B 82 2F 0A CC 0B 
19:14:06:8478 Rx 1 0x18DA21F1 x 8 20 6B 6C 8B CE 5D DE 20 
19:14:06:8481 Rx 1 0x18DA21F1 x 8 21 08 8C FF B0 2C 07 16 
19:14:06:8484 Rx 1 0x18DA21F1 x 8 22 9E 22 6E 89 20 32 16 
19:14:06:8486 Rx 1 0x18DA21F1 x 8 23 9E 22 6E 89 EC F0 28 
19:14:06:8489 Rx 1 0x18DA21F1 x 8 24 3B EC F0 28 3B EC F0 
19:14:06:8492 Rx 1 0x18DA21F1 x 8 25 23 40 50 82 00 16 52 
19:14:06:8495 Rx 1 0x18DA21F1 x 8 26 77 1B 84 16 9E 3F EC 
19:14:06:8498 Rx 1 0x18DA21F1 x 8 27 8F 3B EC 8F 3B EC F0 
19:14:06:8501 Rx 1 0x18DA21F1 x 8 28 23 40 50 82 00 16 52 
19:14:06:8504 Rx 1 0x18DA21F1 x 8 29 77 1B 84 6C 8F 6E 8D 
19:14:06:8507 Rx 1 0x18DA21F1 x 8 2A C7 87 3B CE 40 1C 34 
19:14:06:8510 Rx 1 0x18DA21F1 x 8 2B 16 9E 46 16 53 8C 1B 
19:14:06:8512 Rx 1 0x18DA21F1 x 8 2C 84 18 2C 01 7F C7 87 
19:14:06:8515 Rx 1 0x18DA21F1 x 8 2D 3B CE 3D 80 34 EC 8F 
19:14:06:8518 Rx 1 0x18DA21F1 x 8 2E EE 8D 16 52 E1 CD 00 
19:14:06:8521 Rx 1 0x18DA21F1 x 8 2F 00 6D A1 CD 40 80 35 
19:14:06:8524 Rx 1 0x18DA21F1 x 8 20 16 55 10 1B 84 16 54 
19:14:06:8527 Rx 1 0x18DA21F1 x 8 21 16 16 57 EA 05 D2 05 
19:14:06:8530 Rx 1 0x18DA21F1 x 8 22 05 4F A8 A8 CC 70 5F 
19:14:06:8533 Rx 1 0x18DA21F1 x 8 23 3B CE 30 89 34 16 9E 
19:14:06:8536 Rx 1 0x18DA21F1 x 8 24 46 16 53 8C 1B 84 2C 
19:14:06:8539 Rx 1 0x18DA21F1 x 8 25 27 E6 F0 1E 27 13 EC 
19:14:06:8541 Rx 1 0x18DA21F1 x 8 26 8B 3B EC 8B 3B CC 0F 
19:14:06:8544 Rx 1 0x18DA21F1 x 8 27 DB CE 40 49 16 52 F6 
19:14:06:8547 Rx 1 0x18DA21F1 x 8 28 1B 84 20 04 EC 8B EE 
19:14:06:8550 Rx 1 0x18DA21F1 x 8 29 89 B7 46 6E 87 35 ED 
19:14:06:8553 Rx 1 0x18DA21F1 x 8 2A 89 35 06 9D ED C7 87 
19:14:06:8556 Rx 1 0x18DA21F1 x 8 2B 6C F0 1B 6C F0 19 6C 
19:14:06:8559 Rx 1 0x18DA21F1 x 8 2C F0 17 6C F0 15 06 9C 
19:14:06:8562 Rx 1 0x18DA21F1 x 8 2D 63 CC 63 38 6C F0 1B 
19:14:06:8564 Rx 1 0x18DA21F1 x 8 2E CE 3E ED 6E F0 19 CC 
19:14:06:8567 Rx 1 0x18DA21F1 x 8 2F 50 06 6C F0 17 CC 20 
19:14:06:8570 Rx 1 0x18DA21F1 x 8 20 64 6C F0 15 EC 8F 3B 
19:14:06:8573 Rx 1 0x18DA21F1 x 8 21 EE 8F 34 16 52 E1 6C 
19:14:06:8576 Rx 1 0x18DA21F1 x 8 22 A3 EC F0 28 3B 6E 84 
19:14:06:8579 Rx 1 0x18DA21F1 x 8 23 EE F0 28 34 16 52 E1 
19:14:06:8582 Rx 1 0x18DA21F1 x 8 24 1B 84 ED 8F 35 ED 8F 
19:14:06:8585 Rx 1 0x18DA21F1 x 8 25 35 16 52 F6 1B 84 ED 
19:14:06:8588 Rx 1 0x18DA21F1 x 8 26 F0 28 35 ED F0 28 35 
19:14:06:8591 Rx 1 0x18DA21F1 x 8 27 B7 46 EC 84 6E 88 EE 
19:14:06:8593 Rx 1 0x18DA21F1 x 8 28 86 16 52 E1 6C A1 34 
19:14:06:8596 Rx 1 0x18DA21F1 x 8 29 B7 64 EE 88 20 28 CC 
19:14:06:8599 Rx 1 0x18DA21F1 x 8 2A 0F DB 6C F0 1B CE 3F 
19:14:06:8602 Rx 1 0x18DA21F1 x 8 2B 49 16 9E 4C 16 9E 08 
19:14:06:8605 Rx 1 0x18DA21F1 x 8 2C 35 ED F0 28 35 B7 46 
19:14:06:8608 Rx 1 0x18DA21F1 x 8 2D EC F0 13 6E 84 EE F0 
19:14:06:8611 Rx 1 0x18DA21F1 x 8 2E 11 16 52 E1 6C A1 34 
19:14:06:8614 Rx 1 0x18DA21F1 x 8 2F B7 64 EE 84 20 7E CC 
19:14:06:8617 Rx 1 0x18DA21F1 x 8 20 98 5F 6C F0 1B CE 3F 
19:14:06:8620 Rx 1 0x18DA21F1 x 8 21 7B 6E F0 19 CC 1E DC 
19:14:06:8622 Rx 1 0x18DA21F1 x 8 22 6C F0 17 CC A2 83 16 
19:14:06:8625 Rx 1 0x18DA21F1 x 8 23 9E 08 35 ED F0 28 35 
19:14:06:8628 Rx 1 0x18DA21F1 x 8 24 6C 84 EC F0 2C B7 D6 
19:14:06:8631 Rx 1 0x18DA21F1 x 8 25 16 52 E1 1B 84 6C 82 
19:14:06:8634 Rx 1 0x18DA21F1 x 8 26 EC F0 28 3B EC F0 28 
19:14:06:8637 Rx 1 0x18DA21F1 x 8 27 3B EC 86 16 52 E1 1B 
19:14:06:8640 Rx 1 0x18DA21F1 x 8 28 84 16 9E 3F EC 8F 3B 
19:14:06:8643 Rx 1 0x18DA21F1 x 8 29 EC 8F 3B EC F0 13 EE 
19:14:06:8646 Rx 1 0x18DA21F1 x 8 2A F0 11 16 52 E1 1B 84 
19:14:06:8648 Rx 1 0x18DA21F1 x 8 2B 6C 82 EC 80 3B 35 B7 
19:14:06:8651 Rx 1 0x18DA21F1 x 8 2C D6 16 52 E1 6C A3 EC 
19:14:06:8654 Rx 1 0x18DA21F1 x 8 2D 8F 3B EC 8F 3B EC 84 
19:14:06:8657 Rx 1 0x18DA21F1 x 8 2E 16 52 F6 6C A3 EC F0 
19:14:06:8660 Rx 1 0x18DA21F1 x 8 2F 28 3B EC F0 28 3B EC 
19:14:06:8663 Rx 1 0x18DA21F1 x 8 20 86 B7 D6 16 52 E1 6C 
19:14:06:8666 Rx 1 0x18DA21F1 x 8 21 A1 34 EC 84 B7 65 16 
19:14:06:8669 Rx 1 0x18DA21F1 x 8 22 55 24 1B 84 6C 8B 6E 
19:14:06:8672 Rx 1 0x18DA21F1 x 8 23 89 20 41 CC 0F DB 6C 
19:14:06:8674 Rx 1 0x18DA21F1 x 8 24 F0 1B CE 3F C9 16 9E 
19:14:06:8677 Rx 1 0x18DA21F1 x 8 25 4C 6C F0 15 CD 0B 6B 
19:14:06:8680 Rx 1 0x18DA21F1 x 8 26 35 CC 5D 5E 3B EC 8F 
19:14:06:8683 Rx 1 0x18DA21F1 x 8 27 EE 8D 16 53 8C 1B 84 
19:14:06:8686 Rx 1 0x18DA21F1 x 8 28 2E 19 16 9E 46 16 53 
19:14:06:8689 Rx 1 0x18DA21F1 x 8 29 09 ED F0 28 35 ED F0 
19:14:06:8692 Rx 1 0x18DA21F1 x 8 2A 28 35 16 55 24 1B 84 
19:14:06:8695 Rx 1 0x18DA21F1 x 8 2B 6C 8B 6E 89 20 06 C7 
19:14:06:8698 Rx 1 0x18DA21F1 x 8 2C 87 6C 8B 6C 89 EC 8B 
19:14:06:8700 Rx 1 0x18DA21F1 x 8 2D 3B EE 8B 34 16 55 10 
19:14:06:8703 Rx 1 0x18DA21F1 x 8 2E 1B 84 6C F0 13 6E F0 
19:14:06:8706 Rx 1 0x18DA21F1 x 8 2F 11 CD 16 43 35 CD 3D 
19:14:06:8709 Rx 1 0x18DA21F1 x 8 20 32 35 16 55 10 CD 0C 
19:14:06:8712 Rx 1 0x18DA21F1 x 8 21 31 6D A1 CD BD 43 35 
19:14:06:8715 Rx 1 0x18DA21F1 x 8 22 16 52 E1 1B 84 16 9D 
19:14:06:8718 Rx 1 0x18DA21F1 x 8 23 FA 6C 80 CC 94 36 3B 
19:14:06:8720 Rx 1 0x18DA21F1 x 8 24 CC 3D 57 3B EC 84 16 
19:14:06:8723 Rx 1 0x18DA21F1 x 8 25 52 E1 1B 84 16 9D FA 
19:14:06:8726 Rx 1 0x18DA21F1 x 8 26 6C 80 CC F0 F1 3B CC 
19:14:06:8729 Rx 1 0x18DA21F1 x 8 27 BD 70 3B EC 84 16 52 
19:14:06:8732 Rx 1 0x18DA21F1 x 8 28 E1 1B 84 16 9D FA 6C 
19:14:06:8735 Rx 1 0x18DA21F1 x 8 29 80 CC 88 89 3B 86 3D 
19:14:06:8738 Rx 1 0x18DA21F1 x 8 2A 53 3B EC 84 16 52 E1 
19:14:06:8741 Rx 1 0x18DA21F1 x 8 2B 1B 84 16 9D FA 6C 80 
19:14:06:8743 Rx 1 0x18DA21F1 x 8 2C CC 89 D9 3B CC BD 9D 
19:14:06:8746 Rx 1 0x18DA21F1 x 8 2D 3B EC 84 16 52 E1 1B 
19:14:06:8749 Rx 1 0x18DA21F1 x 8 2E 84 16 9D FA 6C 80 CC 
19:14:06:8752 Rx 1 0x18DA21F1 x 8 2F 2E 8C 3B CC 3D BA 3B 
19:14:06:8755 Rx 1 0x18DA21F1 x 8 20 EC 84 16 52 E1 1B 84 
19:14:06:8758 Rx 1 0x18DA21F1 x 8 21 16 9D FA 6C 80 CC 8E 
19:14:06:8761 Rx 1 0x18DA21F1 x 8 22 39 3B CC BD E3 00 00 
19:14:06:8767 Rx 1 0x18DAF121 x 8 03 7F 36 78 00 00 00 00 
19:14:06:9317 Rx 1 0x18DAF121 x 8 02 76 06 78 00 00 00 00 


19:14:07:2025 Rx 1 0x18DA21F1 x 8 14 E2 36 07 3B EC 84 16 
19:14:07:2028 Rx 1 0x18DAF121 x 8 30 00 00 00 00 00 00 00 
19:14:07:2032 Rx 1 0x18DA21F1 x 8 21 52 E1 1B 84 16 9D FA 
19:14:07:2035 Rx 1 0x18DA21F1 x 8 22 6C 80 CC 49 25 3B 86 
19:14:07:2038 Rx 1 0x18DA21F1 x 8 23 3E 57 3B EC 84 16 52 
19:14:07:2041 Rx 1 0x18DA21F1 x 8 24 E1 1B 84 16 9D FA CD 
19:14:07:2044 Rx 1 0x18DA21F1 x 8 25 CC CD 35 CD BE 4C 35 
19:14:07:2047 Rx 1 0x18DA21F1 x 8 26 16 52 E1 1B 84 ED F0 
19:14:07:2050 Rx 1 0x18DA21F1 x 8 27 13 35 6C 82 EC F0 13 
19:14:07:2053 Rx 1 0x18DA21F1 x 8 28 3B EC 84 16 55 10 6C 
19:14:07:2056 Rx 1 0x18DA21F1 x 8 29 A3 CC AA AB 3B 86 3E 
19:14:07:2058 Rx 1 0x18DA21F1 x 8 2A 53 3B EC 84 16 52 E1 
19:14:07:2061 Rx 1 0x18DA21F1 x 8 2B 6D A1 ED F0 13 35 16 
19:14:07:2064 Rx 1 0x18DA21F1 x 8 2C 55 10 1B 84 ED 8B 35 
19:14:07:2067 Rx 1 0x18DA21F1 x 8 2D 6C 82 EC 8B 3B EC 84 
19:14:07:2070 Rx 1 0x18DA21F1 x 8 2E 16 55 10 6C A1 34 EC 
19:14:07:2073 Rx 1 0x18DA21F1 x 8 2F F0 1B EE F0 19 16 52 
19:14:07:2076 Rx 1 0x18DA21F1 x 8 20 F6 6D A1 ED 8B 35 16 
19:14:07:2079 Rx 1 0x18DA21F1 x 8 21 52 E1 1B 84 ED F0 1B 
19:14:07:2082 Rx 1 0x18DA21F1 x 8 22 35 ED F0 1B 35 16 52 
19:14:07:2084 Rx 1 0x18DA21F1 x 8 23 E1 1B 84 6C F0 13 6E 
19:14:07:2087 Rx 1 0x18DA21F1 x 8 24 F0 11 E6 F0 1E 27 14 
19:14:07:2090 Rx 1 0x18DA21F1 x 8 25 EC F0 13 3B 34 CC 0F 
19:14:07:2093 Rx 1 0x18DA21F1 x 8 26 DB CE 40 49 16 52 F6 
19:14:07:2096 Rx 1 0x18DA21F1 x 8 27 1B 84 B7 46 20 03 ED 
19:14:07:2099 Rx 1 0x18DA21F1 x 8 28 F0 13 6E 87 35 EC 89 
19:14:07:2102 Rx 1 0x18DA21F1 x 8 29 3B E6 F0 21 4A 99 30 
19:14:07:2105 Rx 1 0x18DA21F1 x 8 2A F6 1B 84 1B F0 23 0A 
19:14:07:2108 Rx 1 0x18DA21F1 x 8 2B ED F0 15 35 ED F0 15 
19:14:07:2110 Rx 1 0x18DA21F1 x 8 2C 35 16 55 10 1B 84 3D 
19:14:07:2113 Rx 1 0x18DA21F1 x 8 2D 6C F0 17 EC F0 11 3B 
19:14:07:2116 Rx 1 0x18DA21F1 x 8 2E EE F0 11 34 EC F0 2E 
19:14:07:2119 Rx 1 0x18DA21F1 x 8 2F EE F0 2C 16 52 F6 1B 
19:14:07:2122 Rx 1 0x18DA21F1 x 8 20 84 ED F0 2A 3D EC F0 
19:14:07:2125 Rx 1 0x18DA21F1 x 8 21 11 3B EC F0 11 3B EC 
19:14:07:2128 Rx 1 0x18DA21F1 x 8 22 F0 2E EE F0 2C 16 55 
19:14:07:2131 Rx 1 0x18DA21F1 x 8 23 24 1B 84 6C 8D 3D EC 
19:14:07:2134 Rx 1 0x18DA21F1 x 8 24 F0 2A EE F0 28 3D 6C 
19:14:07:2137 Rx 1 0x18DA21F1 x 8 25 F0 2A 6E F0 28 3D EC 
19:14:07:2142 Rx 1 0x18DA21F1 x 8 26 F0 11 EE 8F 3D 6E F0 
19:14:07:2145 Rx 1 0x18DA21F1 x 8 27 1B C7 87 6C F0 19 3D 
19:14:07:2148 Rx 1 0x18DA21F1 x 8 28 6C AA 34 3B 4A 97 F2 
19:14:07:2151 Rx 1 0x18DA21F1 x 8 29 F6 04 41 14 C1 03 22 
19:14:07:2154 Rx 1 0x18DA21F1 x 8 2A 10 53 87 16 57 EA 03 
19:14:07:2157 Rx 1 0x18DA21F1 x 8 2B 09 03 23 23 EC 84 EE 
19:14:07:2159 Rx 1 0x18DA21F1 x 8 2C 82 20 26 EC 84 EE 82 
19:14:07:2162 Rx 1 0x18DA21F1 x 8 2D 4A 97 E2 F6 6C 80 C7 
19:14:07:2165 Rx 1 0x18DA21F1 x 8 2E 87 3B CD 3F 80 35 EC 
19:14:07:2168 Rx 1 0x18DA21F1 x 8 2F 84 16 53 8C 1B 84 2F 
19:14:07:2171 Rx 1 0x18DA21F1 x 8 20 0E C6 01 87 7C 13 42 
19:14:07:2174 Rx 1 0x18DA21F1 x 8 21 FC 47 FE FE 47 FC 20 
19:14:07:2177 Rx 1 0x18DA21F1 x 8 22 5E EC 84 26 07 EC 82 
19:14:07:2180 Rx 1 0x18DA21F1 x 8 23 8C BF 80 27 3E EC 84 
19:14:07:2183 Rx 1 0x18DA21F1 x 8 24 3B EE 84 34 C7 87 B7 
19:14:07:2186 Rx 1 0x18DA21F1 x 8 25 D6 16 52 F6 6C A3 C7 
19:14:07:2189 Rx 1 0x18DA21F1 x 8 26 87 3B CC 3F 80 3B EC 
19:14:07:2191 Rx 1 0x18DA21F1 x 8 27 88 B7 D6 16 52 E1 6C 
19:14:07:2194 Rx 1 0x18DA21F1 x 8 28 A1 34 EC 84 B7 65 16 
19:14:07:2197 Rx 1 0x18DA21F1 x 8 29 55 24 1B 84 4A 98 EE 
19:14:07:2200 Rx 1 0x18DA21F1 x 8 2A F6 3B 34 C7 87 CE 3F 
19:14:07:2203 Rx 1 0x18DA21F1 x 8 2B 80 4A 99 51 F6 1B 84 
19:14:07:2206 Rx 1 0x18DA21F1 x 8 2C 6C 88 20 08 CC 0F DB 
19:14:07:2209 Rx 1 0x18DA21F1 x 8 2D 6C 88 CE 3F C9 6E 86 
19:14:07:2212 Rx 1 0x18DA21F1 x 8 2E EC 88 3B EE 88 34 16 
19:14:07:2215 Rx 1 0x18DA21F1 x 8 2F 52 E1 1B 84 1B 8A 0A 
19:14:07:2220 Rx 1 0x18DA21F1 x 8 20 6C AA EC 8B 6C 84 EC 
19:14:07:2225 Rx 1 0x18DA21F1 x 8 21 89 6C 82 EC 80 26 12 
19:14:07:2231 Rx 1 0x18DA21F1 x 8 22 20 26 EE 84 E6 00 ED 
19:14:07:2237 Rx 1 0x18DA21F1 x 8 23 82 E1 40 26 0D 08 6E 
19:14:07:2242 Rx 1 0x18DA21F1 x 8 24 84 02 6D 82 EE 80 09 
19:14:07:2248 Rx 1 0x18DA21F1 x 8 25 6E 80 26 E9 EE 84 E6 
19:14:07:2254 Rx 1 0x18DA21F1 x 8 26 00 87 EE 82 3B E6 00 
19:14:07:2257 Rx 1 0x18DA21F1 x 8 27 3B EC 82 A3 B3 1B 86 
19:14:07:2259 Rx 1 0x18DA21F1 x 8 28 0A 6C AC EC 87 6C 82 
19:14:07:2262 Rx 1 0x18DA21F1 x 8 29 EE 89 20 08 ED 82 E6 
19:14:07:2265 Rx 1 0x18DA21F1 x 8 2A 70 6B 30 6D 82 ED 80 
19:14:07:2268 Rx 1 0x18DA21F1 x 8 2B 34 1A 5F 6E 82 8D 00 
19:14:07:2271 Rx 1 0x18DA21F1 x 8 2C 00 30 26 EB EC 89 1B 
19:14:07:2274 Rx 1 0x18DA21F1 x 8 2D 84 0A ED 85 B7 45 20 
19:14:07:2277 Rx 1 0x18DA21F1 x 8 2E 04 E6 84 6B 70 35 19 
19:14:07:2280 Rx 1 0x18DA21F1 x 8 2F 1F 8E 00 00 B7 65 31 
19:14:07:2283 Rx 1 0x18DA21F1 x 8 20 26 F1 EC 85 0A 00 00 
19:14:07:2286 Rx 1 0x18DA21F1 x 8 21 00 00 00 00 00 00 00 
19:14:07:2295 Rx 1 0x18DA21F1 x 8 22 00 00 00 00 00 00 00 
19:14:07:2298 Rx 1 0x18DA21F1 x 8 23 00 00 00 00 00 00 00 
19:14:07:2301 Rx 1 0x18DA21F1 x 8 24 00 00 00 00 00 00 00 
19:14:07:2304 Rx 1 0x18DA21F1 x 8 25 00 00 00 00 00 00 00 
19:14:07:2307 Rx 1 0x18DA21F1 x 8 26 00 00 00 00 00 00 00 
19:14:07:2310 Rx 1 0x18DA21F1 x 8 27 00 00 00 00 00 00 00 
19:14:07:2314 Rx 1 0x18DA21F1 x 8 28 00 00 00 00 00 00 00 
19:14:07:2317 Rx 1 0x18DA21F1 x 8 29 00 00 00 00 00 00 00 
19:14:07:2320 Rx 1 0x18DA21F1 x 8 2A 00 00 00 00 00 00 00 
19:14:07:2323 Rx 1 0x18DA21F1 x 8 2B 00 00 00 00 00 00 00 
19:14:07:2326 Rx 1 0x18DA21F1 x 8 2C 00 00 00 00 00 00 00 
19:14:07:2329 Rx 1 0x18DA21F1 x 8 2D 00 00 00 00 00 00 00 
19:14:07:2332 Rx 1 0x18DA21F1 x 8 2E 00 00 00 00 00 00 00 
19:14:07:2335 Rx 1 0x18DA21F1 x 8 2F 00 00 00 00 00 00 00 
19:14:07:2338 Rx 1 0x18DA21F1 x 8 20 00 00 00 00 00 00 00 
19:14:07:2341 Rx 1 0x18DA21F1 x 8 21 00 00 00 00 00 00 00 
19:14:07:2345 Rx 1 0x18DA21F1 x 8 22 00 00 00 00 00 00 00 
19:14:07:2348 Rx 1 0x18DA21F1 x 8 23 00 00 00 00 00 00 00 
19:14:07:2350 Rx 1 0x18DA21F1 x 8 24 00 00 00 00 00 00 00 
19:14:07:2353 Rx 1 0x18DA21F1 x 8 25 00 00 00 00 00 00 00 
19:14:07:2356 Rx 1 0x18DA21F1 x 8 26 00 00 00 00 00 00 00 
19:14:07:2360 Rx 1 0x18DA21F1 x 8 27 00 00 00 00 00 00 00 
19:14:07:2363 Rx 1 0x18DA21F1 x 8 28 00 00 00 00 00 00 00 
19:14:07:2366 Rx 1 0x18DA21F1 x 8 29 00 00 00 00 00 00 00 
19:14:07:2369 Rx 1 0x18DA21F1 x 8 2A 00 00 00 00 00 00 00 
19:14:07:2372 Rx 1 0x18DA21F1 x 8 2B 00 00 00 00 00 00 00 
19:14:07:2375 Rx 1 0x18DA21F1 x 8 2C 00 00 00 00 00 00 00 
19:14:07:2378 Rx 1 0x18DA21F1 x 8 2D 00 00 00 00 00 00 00 
19:14:07:2381 Rx 1 0x18DA21F1 x 8 2E 00 00 00 00 00 00 00 
19:14:07:2384 Rx 1 0x18DA21F1 x 8 2F 00 00 00 00 00 00 00 
19:14:07:2388 Rx 1 0x18DA21F1 x 8 20 00 00 00 00 00 00 00 
19:14:07:2391 Rx 1 0x18DA21F1 x 8 21 00 00 00 00 00 00 00 
19:14:07:2394 Rx 1 0x18DA21F1 x 8 22 00 00 00 00 00 00 00 
19:14:07:2397 Rx 1 0x18DA21F1 x 8 23 00 00 00 00 00 00 00 
19:14:07:2400 Rx 1 0x18DA21F1 x 8 24 00 00 00 00 00 00 00 
19:14:07:2403 Rx 1 0x18DA21F1 x 8 25 00 00 00 00 00 00 00 
19:14:07:2406 Rx 1 0x18DA21F1 x 8 26 00 00 00 00 00 00 00 
19:14:07:2409 Rx 1 0x18DA21F1 x 8 27 00 00 00 00 00 00 00 
19:14:07:2412 Rx 1 0x18DA21F1 x 8 28 00 00 00 00 00 00 00 
19:14:07:2415 Rx 1 0x18DA21F1 x 8 29 00 00 00 00 00 00 00 
19:14:07:2418 Rx 1 0x18DA21F1 x 8 2A 00 00 00 00 00 00 00 
19:14:07:2421 Rx 1 0x18DA21F1 x 8 2B 00 00 00 00 00 00 00 
19:14:07:2424 Rx 1 0x18DA21F1 x 8 2C 00 00 00 00 00 00 00 
19:14:07:2427 Rx 1 0x18DA21F1 x 8 2D 00 00 00 00 00 00 00 
19:14:07:2430 Rx 1 0x18DA21F1 x 8 2E 00 00 00 00 00 00 00 
19:14:07:2434 Rx 1 0x18DA21F1 x 8 2F 00 00 00 00 00 00 00 
19:14:07:2437 Rx 1 0x18DA21F1 x 8 20 00 00 00 00 00 00 00 
19:14:07:2440 Rx 1 0x18DA21F1 x 8 21 00 00 00 00 00 00 00 
19:14:07:2443 Rx 1 0x18DA21F1 x 8 22 00 00 00 00 00 00 00 
19:14:07:2446 Rx 1 0x18DA21F1 x 8 23 00 00 00 00 00 00 00 
19:14:07:2449 Rx 1 0x18DA21F1 x 8 24 00 00 00 00 00 00 00 
19:14:07:2452 Rx 1 0x18DA21F1 x 8 25 00 00 00 00 00 00 00 
19:14:07:2455 Rx 1 0x18DA21F1 x 8 26 00 00 00 00 00 00 00 
19:14:07:2458 Rx 1 0x18DA21F1 x 8 27 00 00 00 00 00 00 00 
19:14:07:2461 Rx 1 0x18DA21F1 x 8 28 00 00 00 00 00 00 00 
19:14:07:2464 Rx 1 0x18DA21F1 x 8 29 00 00 00 00 00 00 00 
19:14:07:2467 Rx 1 0x18DA21F1 x 8 2A 00 00 00 00 00 00 00 
19:14:07:2470 Rx 1 0x18DA21F1 x 8 2B 00 00 00 00 00 00 00 
19:14:07:2473 Rx 1 0x18DA21F1 x 8 2C 00 00 00 00 00 00 00 
19:14:07:2476 Rx 1 0x18DA21F1 x 8 2D 00 00 00 00 00 00 00 
19:14:07:2480 Rx 1 0x18DA21F1 x 8 2E 00 00 00 00 00 00 00 
19:14:07:2483 Rx 1 0x18DA21F1 x 8 2F 00 00 00 00 00 00 00 
19:14:07:2486 Rx 1 0x18DA21F1 x 8 20 00 00 00 00 00 00 00 
19:14:07:2489 Rx 1 0x18DA21F1 x 8 21 00 00 00 00 00 00 00 
19:14:07:2492 Rx 1 0x18DA21F1 x 8 22 00 00 00 00 00 00 00 
19:14:07:2495 Rx 1 0x18DA21F1 x 8 23 00 00 00 00 00 00 00 
19:14:07:2498 Rx 1 0x18DA21F1 x 8 24 00 00 00 00 00 00 00 
19:14:07:2501 Rx 1 0x18DA21F1 x 8 25 00 00 00 00 00 00 00 
19:14:07:2504 Rx 1 0x18DA21F1 x 8 26 00 00 00 00 00 00 00 
19:14:07:2507 Rx 1 0x18DA21F1 x 8 27 00 00 00 00 00 00 00 
19:14:07:2510 Rx 1 0x18DA21F1 x 8 28 00 00 00 00 00 00 00 
19:14:07:2513 Rx 1 0x18DA21F1 x 8 29 00 00 00 00 00 00 00 
19:14:07:2516 Rx 1 0x18DA21F1 x 8 2A 00 00 00 00 00 00 00 
19:14:07:2519 Rx 1 0x18DA21F1 x 8 2B 00 00 00 00 00 00 00 
19:14:07:2523 Rx 1 0x18DA21F1 x 8 2C 00 00 00 00 00 00 00 
19:14:07:2526 Rx 1 0x18DA21F1 x 8 2D 00 00 00 00 00 00 00 
19:14:07:2529 Rx 1 0x18DA21F1 x 8 2E 00 00 00 00 00 00 00 
19:14:07:2532 Rx 1 0x18DA21F1 x 8 2F 00 00 00 00 00 00 00 
19:14:07:2535 Rx 1 0x18DA21F1 x 8 20 00 00 00 00 00 00 00 
19:14:07:2538 Rx 1 0x18DA21F1 x 8 21 00 00 00 00 00 00 00 
19:14:07:2541 Rx 1 0x18DA21F1 x 8 22 00 00 00 00 00 00 00 
19:14:07:2544 Rx 1 0x18DA21F1 x 8 23 00 00 00 00 00 00 00 
19:14:07:2547 Rx 1 0x18DA21F1 x 8 24 00 00 00 00 00 00 00 
19:14:07:2550 Rx 1 0x18DA21F1 x 8 25 00 00 00 00 00 00 00 
19:14:07:2554 Rx 1 0x18DA21F1 x 8 26 00 00 00 00 00 00 00 
19:14:07:2557 Rx 1 0x18DA21F1 x 8 27 00 00 00 00 00 00 00 
19:14:07:2560 Rx 1 0x18DA21F1 x 8 28 00 00 00 00 00 00 00 
19:14:07:2563 Rx 1 0x18DA21F1 x 8 29 00 00 00 00 00 00 00 
19:14:07:2566 Rx 1 0x18DA21F1 x 8 2A 00 00 00 00 00 00 00 
19:14:07:2569 Rx 1 0x18DA21F1 x 8 2B 00 00 00 00 00 00 00 
19:14:07:2572 Rx 1 0x18DA21F1 x 8 2C 00 00 00 00 00 00 00 
19:14:07:2575 Rx 1 0x18DA21F1 x 8 2D 00 00 00 00 00 00 00 
19:14:07:2578 Rx 1 0x18DA21F1 x 8 2E 00 00 00 00 00 00 00 
19:14:07:2581 Rx 1 0x18DA21F1 x 8 2F 00 00 00 00 00 00 00 
19:14:07:2584 Rx 1 0x18DA21F1 x 8 20 00 00 00 00 00 00 00 
19:14:07:2587 Rx 1 0x18DA21F1 x 8 21 00 00 00 00 00 00 00 
19:14:07:2590 Rx 1 0x18DA21F1 x 8 22 00 00 00 00 00 00 00 
19:14:07:2595 Rx 1 0x18DAF121 x 8 03 7F 36 78 00 00 00 00 
19:14:07:3145 Rx 1 0x18DAF121 x 8 02 76 07 78 00 00 00 00 

19:14:07:5870 Rx 1 0x18DA21F1 x 8 14 E2 36 08 00 00 00 00 
19:14:07:5873 Rx 1 0x18DAF121 x 8 30 00 00 00 00 00 00 00 
19:14:07:5877 Rx 1 0x18DA21F1 x 8 21 00 00 00 00 00 00 00 
19:14:07:5880 Rx 1 0x18DA21F1 x 8 22 00 00 00 00 00 00 00 
19:14:07:5883 Rx 1 0x18DA21F1 x 8 23 00 00 00 00 00 00 00 
19:14:07:5887 Rx 1 0x18DA21F1 x 8 24 00 00 00 00 00 00 00 
19:14:07:5900 Rx 1 0x18DA21F1 x 8 25 00 00 00 00 00 00 00 
19:14:07:5903 Rx 1 0x18DA21F1 x 8 26 00 00 00 00 00 00 00 
19:14:07:5906 Rx 1 0x18DA21F1 x 8 27 00 00 00 00 00 00 00 
19:14:07:5909 Rx 1 0x18DA21F1 x 8 28 00 00 00 00 00 00 00 
19:14:07:5912 Rx 1 0x18DA21F1 x 8 29 00 00 00 00 00 00 00 
19:14:07:5916 Rx 1 0x18DA21F1 x 8 2A 00 00 00 00 00 00 00 
19:14:07:5919 Rx 1 0x18DA21F1 x 8 2B 00 00 00 00 00 00 00 
19:14:07:5922 Rx 1 0x18DA21F1 x 8 2C 00 00 00 00 00 00 00 
19:14:07:5925 Rx 1 0x18DA21F1 x 8 2D 00 00 00 00 00 00 00 
19:14:07:5928 Rx 1 0x18DA21F1 x 8 2E 00 00 00 00 00 00 00 
19:14:07:5931 Rx 1 0x18DA21F1 x 8 2F 00 00 00 00 00 00 00 
19:14:07:5934 Rx 1 0x18DA21F1 x 8 20 00 00 00 00 00 00 00 
19:14:07:5937 Rx 1 0x18DA21F1 x 8 21 00 00 00 00 00 00 00 
19:14:07:5940 Rx 1 0x18DA21F1 x 8 22 00 00 00 00 00 00 00 
19:14:07:5943 Rx 1 0x18DA21F1 x 8 23 00 00 00 00 00 00 00 
19:14:07:5946 Rx 1 0x18DA21F1 x 8 24 00 00 00 00 00 00 00 
19:14:07:5950 Rx 1 0x18DA21F1 x 8 25 00 00 00 00 00 00 00 
19:14:07:5953 Rx 1 0x18DA21F1 x 8 26 00 00 00 00 00 00 00 
19:14:07:5956 Rx 1 0x18DA21F1 x 8 27 00 00 00 00 00 00 00 
19:14:07:5959 Rx 1 0x18DA21F1 x 8 28 00 00 00 00 00 00 00 
19:14:07:5962 Rx 1 0x18DA21F1 x 8 29 00 00 00 00 00 00 00 
19:14:07:5965 Rx 1 0x18DA21F1 x 8 2A 00 00 00 00 00 00 00 
19:14:07:5968 Rx 1 0x18DA21F1 x 8 2B 00 00 00 00 00 00 00 
19:14:07:5972 Rx 1 0x18DA21F1 x 8 2C 00 00 00 00 00 00 00 
19:14:07:5975 Rx 1 0x18DA21F1 x 8 2D 00 00 00 00 00 00 00 
19:14:07:5978 Rx 1 0x18DA21F1 x 8 2E 00 00 00 00 00 00 00 
19:14:07:5981 Rx 1 0x18DA21F1 x 8 2F 00 00 00 00 00 00 00 
19:14:07:5984 Rx 1 0x18DA21F1 x 8 20 00 00 00 00 00 00 00 
19:14:07:5987 Rx 1 0x18DA21F1 x 8 21 00 00 00 00 00 00 00 
19:14:07:5989 Rx 1 0x18DA21F1 x 8 22 00 00 00 00 00 00 00 
19:14:07:5993 Rx 1 0x18DA21F1 x 8 23 00 00 00 00 00 00 00 
19:14:07:5996 Rx 1 0x18DA21F1 x 8 24 00 00 00 00 00 00 00 
19:14:07:5999 Rx 1 0x18DA21F1 x 8 25 00 00 00 00 00 00 00 
19:14:07:6002 Rx 1 0x18DA21F1 x 8 26 00 00 00 00 00 00 00 
19:14:07:6005 Rx 1 0x18DA21F1 x 8 27 00 00 00 00 00 00 00 
19:14:07:6008 Rx 1 0x18DA21F1 x 8 28 00 00 00 00 00 00 00 
19:14:07:6011 Rx 1 0x18DA21F1 x 8 29 00 00 00 00 00 00 00 
19:14:07:6014 Rx 1 0x18DA21F1 x 8 2A 00 00 00 00 00 00 00 
19:14:07:6018 Rx 1 0x18DA21F1 x 8 2B 00 00 00 00 00 00 00 
19:14:07:6021 Rx 1 0x18DA21F1 x 8 2C 00 00 00 00 00 00 00 
19:14:07:6024 Rx 1 0x18DA21F1 x 8 2D 00 00 00 00 00 00 00 
19:14:07:6027 Rx 1 0x18DA21F1 x 8 2E 00 00 00 00 00 00 00 
19:14:07:6030 Rx 1 0x18DA21F1 x 8 2F 00 00 00 00 00 00 00 
19:14:07:6033 Rx 1 0x18DA21F1 x 8 20 00 00 00 00 00 00 00 
19:14:07:6036 Rx 1 0x18DA21F1 x 8 21 00 00 00 00 00 00 00 
