
	11:50:32:2847 Rx 1 0x630 s 1 FE 
	11:50:33:2930 Rx 1 0x630 s 2 FF 00 
	11:50:33:2933 Rx 1 0x631 s 8 FF 0D C1 08 00 08 01 01 
	11:50:33:3232 Rx 1 0x630 s 1 D6 
	11:50:33:3236 Rx 1 0x631 s 8 FF 00 00 00 00 00 00 00 
	11:50:33:3337 Rx 1 0x630 s 4 D5 00 00 03 
	11:50:33:3340 Rx 1 0x631 s 8 FF 00 00 00 00 00 00 00 
	11:50:33:3439 Rx 1 0x630 s 5 D4 00 00 00 1F 
	11:50:33:3441 Rx 1 0x631 s 8 FF 00 00 00 00 00 00 00 
	11:50:33:3540 Rx 1 0x630 s 5 D4 00 00 01 1F 
	11:50:33:3543 Rx 1 0x631 s 8 FF 00 00 00 00 00 00 00 
	11:50:33:3642 Rx 1 0x630 s 5 D4 00 00 02 1E 
	11:50:33:3644 Rx 1 0x631 s 8 FF 00 00 00 00 00 00 00 
	11:50:33:3744 Rx 1 0x630 s 6 D3 00 00 00 00 03 
	11:50:33:3747 Rx 1 0x631 s 8 FF 00 00 00 00 00 00 00 
	11:50:33:3846 Rx 1 0x630 s 6 D3 00 00 00 01 03 
	11:50:33:3848 Rx 1 0x631 s 8 FF 00 00 00 00 00 00 00 
	11:50:33:4049 Rx 1 0x630 s 6 D3 00 00 00 02 03 
	11:50:33:4051 Rx 1 0x631 s 8 FF 00 00 00 00 00 00 00 
	11:50:33:4150 Rx 1 0x630 s 6 D3 00 00 00 03 03 
	11:50:33:4152 Rx 1 0x631 s 8 FF 00 00 00 00 00 00 00 
	11:50:33:4251 Rx 1 0x630 s 6 D3 00 00 00 04 03 
	11:50:33:4253 Rx 1 0x631 s 8 FF 00 00 00 00 00 00 00 
	11:50:33:4352 Rx 1 0x630 s 6 D3 00 00 00 05 03 
	11:50:33:4355 Rx 1 0x631 s 8 FF 00 00 00 00 00 00 00 
	11:50:33:4454 Rx 1 0x630 s 6 D3 00 00 00 06 03 
	11:50:33:4456 Rx 1 0x631 s 8 FF 00 00 00 00 00 00 00 
	11:50:33:4555 Rx 1 0x630 s 6 D3 00 00 00 07 03 
	11:50:33:4558 Rx 1 0x631 s 8 FF 00 00 00 00 00 00 00 
	11:50:33:4656 Rx 1 0x630 s 6 D3 00 00 00 08 03 
	11:50:33:4659 Rx 1 0x631 s 8 FF 00 00 00 00 00 00 00 
	11:50:33:4757 Rx 1 0x630 s 6 D3 00 00 00 09 03 
	11:50:33:4760 Rx 1 0x631 s 8 FF 00 00 00 00 00 00 00 
	11:50:33:4859 Rx 1 0x630 s 6 D3 00 00 00 0A 03 
	11:50:33:4862 Rx 1 0x631 s 8 FF 00 00 00 00 00 00 00 
	11:50:33:5062 Rx 1 0x630 s 6 D3 00 00 00 0B 02 
	11:50:33:5065 Rx 1 0x631 s 8 FF 00 00 00 00 00 00 00 
	11:50:33:5163 Rx 1 0x630 s 6 D3 00 00 00 0C 03 
	11:50:33:5166 Rx 1 0x631 s 8 FF 00 00 00 00 00 00 00 
	11:50:33:5365 Rx 1 0x630 s 6 D3 00 00 00 0D 03 
	11:50:33:5368 Rx 1 0x631 s 8 FF 00 00 00 00 00 00 00 
	11:50:33:5467 Rx 1 0x630 s 6 D3 00 00 00 0E 03 
	11:50:33:5469 Rx 1 0x631 s 8 FF 00 00 00 00 00 00 00 
	11:50:33:5568 Rx 1 0x630 s 6 D3 00 00 00 0F 05 
	11:50:33:5571 Rx 1 0x631 s 8 FF 00 00 00 00 00 00 00 
	11:50:33:5671 Rx 1 0x630 s 6 D3 00 00 00 10 04 
	11:50:33:5673 Rx 1 0x631 s 8 FF 00 00 00 00 00 00 00 
	11:50:33:5873 Rx 1 0x630 s 6 D3 00 00 00 11 05 
	11:50:33:5876 Rx 1 0x631 s 8 FF 00 00 00 00 00 00 00 
	11:50:33:6077 Rx 1 0x630 s 6 D3 00 00 00 12 02 
	11:50:33:6080 Rx 1 0x631 s 8 FF 00 00 00 00 00 00 00 
	11:50:33:6278 Rx 1 0x630 s 6 D3 00 00 00 13 03 
	11:50:33:6281 Rx 1 0x631 s 8 FF 00 00 00 00 00 00 00 
	11:50:33:6381 Rx 1 0x630 s 6 D3 00 00 00 14 04 
	11:50:33:6383 Rx 1 0x631 s 8 FF 00 00 00 00 00 00 00 
	11:50:33:6483 Rx 1 0x630 s 6 D3 00 00 00 15 05 
	11:50:33:6485 Rx 1 0x631 s 8 FF 00 00 00 00 00 00 00 
	11:50:33:6595 Rx 1 0x630 s 6 D3 00 00 00 16 06 
	11:50:33:6598 Rx 1 0x631 s 8 FF 00 00 00 00 00 00 00 
	11:50:33:6697 Rx 1 0x630 s 6 D3 00 00 00 17 06 
	11:50:33:6699 Rx 1 0x631 s 8 FF 00 00 00 00 00 00 00 
	11:50:33:6800 Rx 1 0x630 s 6 D3 00 00 00 18 05 
	11:50:33:6803 Rx 1 0x631 s 8 FF 00 00 00 00 00 00 00 
	11:50:33:7119 Rx 1 0x630 s 6 D3 00 00 00 19 04 
	11:50:33:7122 Rx 1 0x631 s 8 FF 00 00 00 00 00 00 00 
	11:50:33:7217 Rx 1 0x630 s 6 D3 00 00 00 1A 02 
	11:50:33:7219 Rx 1 0x631 s 8 FF 00 00 00 00 00 00 00 
	11:50:33:7318 Rx 1 0x630 s 6 D3 00 00 00 1B 02 
	11:50:33:7321 Rx 1 0x631 s 8 FF 00 00 00 00 00 00 00 
	11:50:33:7420 Rx 1 0x630 s 6 D3 00 00 00 1C 02 
	11:50:33:7423 Rx 1 0x631 s 8 FF 00 00 00 00 00 00 00 
	11:50:33:7522 Rx 1 0x630 s 6 D3 00 00 00 1D 03 
	11:50:33:7525 Rx 1 0x631 s 8 FF 00 00 00 00 00 00 00 
	11:50:33:7624 Rx 1 0x630 s 6 D3 00 00 00 1E 03 
	11:50:33:7626 Rx 1 0x631 s 8 FF 00 00 00 00 00 00 00 
	11:50:33:7726 Rx 1 0x630 s 6 D3 00 00 01 00 00 
	11:50:33:7728 Rx 1 0x631 s 8 FF 00 00 00 00 00 00 00 
	11:50:33:7826 Rx 1 0x630 s 6 D3 00 00 01 01 01 
	11:50:33:7829 Rx 1 0x631 s 8 FF 00 00 00 00 00 00 00 
	11:50:33:8029 Rx 1 0x630 s 6 D3 00 00 01 02 02 
	11:50:33:8031 Rx 1 0x631 s 8 FF 00 00 00 00 00 00 00 
	11:50:33:8130 Rx 1 0x630 s 6 D3 00 00 01 03 02 
	11:50:33:8133 Rx 1 0x631 s 8 FF 00 00 00 00 00 00 00 
	11:50:33:8231 Rx 1 0x630 s 6 D3 00 00 01 04 01 
	11:50:33:8234 Rx 1 0x631 s 8 FF 00 00 00 00 00 00 00 
	11:50:33:8333 Rx 1 0x630 s 6 D3 00 00 01 05 01 
	11:50:33:8335 Rx 1 0x631 s 8 FF 00 00 00 00 00 00 00 
	11:50:33:8434 Rx 1 0x630 s 6 D3 00 00 01 06 02 
	11:50:33:8437 Rx 1 0x631 s 8 FF 00 00 00 00 00 00 00 
	11:50:33:8535 Rx 1 0x630 s 6 D3 00 00 01 07 02 
	11:50:33:8538 Rx 1 0x631 s 8 FF 00 00 00 00 00 00 00 
	11:50:33:8637 Rx 1 0x630 s 6 D3 00 00 01 08 02 
	11:50:33:8639 Rx 1 0x631 s 8 FF 00 00 00 00 00 00 00 
	11:50:33:8738 Rx 1 0x630 s 6 D3 00 00 01 09 02 
	11:50:33:8741 Rx 1 0x631 s 8 FF 00 00 00 00 00 00 00 
	11:50:33:8840 Rx 1 0x630 s 6 D3 00 00 01 0A 03 
	11:50:33:8842 Rx 1 0x631 s 8 FF 00 00 00 00 00 00 00 
	11:50:33:9042 Rx 1 0x630 s 6 D3 00 00 01 0B 03 
	11:50:33:9044 Rx 1 0x631 s 8 FF 00 00 00 00 00 00 00 
	11:50:33:9143 Rx 1 0x630 s 6 D3 00 00 01 0C 03 
	11:50:33:9146 Rx 1 0x631 s 8 FF 00 00 00 00 00 00 00 
	11:50:33:9244 Rx 1 0x630 s 6 D3 00 00 01 0D 04 
	11:50:33:9247 Rx 1 0x631 s 8 FF 00 00 00 00 00 00 00 
	11:50:33:9345 Rx 1 0x630 s 6 D3 00 00 01 0E 03 
	11:50:33:9348 Rx 1 0x631 s 8 FF 00 00 00 00 00 00 00 
	11:50:33:9448 Rx 1 0x630 s 6 D3 00 00 01 0F 05 
	11:50:33:9451 Rx 1 0x631 s 8 FF 00 00 00 00 00 00 00 
	11:50:33:9549 Rx 1 0x630 s 6 D3 00 00 01 10 05 
	11:50:33:9552 Rx 1 0x631 s 8 FF 00 00 00 00 00 00 00 
	11:50:33:9652 Rx 1 0x630 s 6 D3 00 00 01 11 03 
	11:50:33:9654 Rx 1 0x631 s 8 FF 00 00 00 00 00 00 00 
	11:50:33:9754 Rx 1 0x630 s 6 D3 00 00 01 12 02 
	11:50:33:9757 Rx 1 0x631 s 8 FF 00 00 00 00 00 00 00 
	11:50:33:9856 Rx 1 0x630 s 6 D3 00 00 01 13 03 
	11:50:33:9859 Rx 1 0x631 s 8 FF 00 00 00 00 00 00 00 
	11:50:34:0066 Rx 1 0x630 s 6 D3 00 00 01 14 03 
	11:50:34:0069 Rx 1 0x631 s 8 FF 00 00 00 00 00 00 00 
	11:50:34:0168 Rx 1 0x630 s 6 D3 00 00 01 15 04 
	11:50:34:0171 Rx 1 0x631 s 8 FF 00 00 00 00 00 00 00 
	11:50:34:0270 Rx 1 0x630 s 6 D3 00 00 01 16 02 
	11:50:34:0272 Rx 1 0x631 s 8 FF 00 00 00 00 00 00 00 
	11:50:34:0371 Rx 1 0x630 s 6 D3 00 00 01 17 02 
	11:50:34:0374 Rx 1 0x631 s 8 FF 00 00 00 00 00 00 00 
	11:50:34:0473 Rx 1 0x630 s 6 D3 00 00 01 18 03 
	11:50:34:0476 Rx 1 0x631 s 8 FF 00 00 00 00 00 00 00 
	11:50:34:0575 Rx 1 0x630 s 6 D3 00 00 01 19 03 
	11:50:34:0578 Rx 1 0x631 s 8 FF 00 00 00 00 00 00 00 
	11:50:34:0677 Rx 1 0x630 s 6 D3 00 00 01 1A 02 
	11:50:34:0679 Rx 1 0x631 s 8 FF 00 00 00 00 00 00 00 
	11:50:34:0778 Rx 1 0x630 s 6 D3 00 00 01 1B 04 
	11:50:34:0781 Rx 1 0x631 s 8 FF 00 00 00 00 00 00 00 
	11:50:34:0887 Rx 1 0x630 s 6 D3 00 00 01 1C 04 
	11:50:34:0890 Rx 1 0x631 s 8 FF 00 00 00 00 00 00 00 
	11:50:34:1092 Rx 1 0x630 s 6 D3 00 00 01 1D 03 
	11:50:34:1094 Rx 1 0x631 s 8 FF 00 00 00 00 00 00 00 
	11:50:34:1193 Rx 1 0x630 s 6 D3 00 00 01 1E 03 
	11:50:34:1196 Rx 1 0x631 s 8 FF 00 00 00 00 00 00 00 
	11:50:34:1299 Rx 1 0x630 s 6 D3 00 00 02 00 02 
	11:50:34:1302 Rx 1 0x631 s 8 FF 00 00 00 00 00 00 00 
	11:50:34:1398 Rx 1 0x630 s 6 D3 00 00 02 01 04 
	11:50:34:1401 Rx 1 0x631 s 8 FF 00 00 00 00 00 00 00 
	11:50:34:1497 Rx 1 0x630 s 6 D3 00 00 02 02 02 
	11:50:34:1500 Rx 1 0x631 s 8 FF 00 00 00 00 00 00 00 
	11:50:34:1599 Rx 1 0x630 s 6 D3 00 00 02 03 02 
	11:50:34:1601 Rx 1 0x631 s 8 FF 00 00 00 00 00 00 00 
	11:50:34:1700 Rx 1 0x630 s 6 D3 00 00 02 04 03 
	11:50:34:1702 Rx 1 0x631 s 8 FF 00 00 00 00 00 00 00 
	11:50:34:1802 Rx 1 0x630 s 6 D3 00 00 02 05 01 
	11:50:34:1804 Rx 1 0x631 s 8 FF 00 00 00 00 00 00 00 
	11:50:34:2104 Rx 1 0x630 s 6 D3 00 00 02 06 01 
	11:50:34:2107 Rx 1 0x631 s 8 FF 00 00 00 00 00 00 00 
	11:50:34:2206 Rx 1 0x630 s 6 D3 00 00 02 07 02 
	11:50:34:2208 Rx 1 0x631 s 8 FF 00 00 00 00 00 00 00 
	11:50:34:2307 Rx 1 0x630 s 6 D3 00 00 02 08 03 
	11:50:34:2309 Rx 1 0x631 s 8 FF 00 00 00 00 00 00 00 
	11:50:34:2409 Rx 1 0x630 s 6 D3 00 00 02 09 02 
	11:50:34:2411 Rx 1 0x631 s 8 FF 00 00 00 00 00 00 00 
	11:50:34:2510 Rx 1 0x630 s 6 D3 00 00 02 0A 03 
	11:50:34:2513 Rx 1 0x631 s 8 FF 00 00 00 00 00 00 00 
	11:50:34:2611 Rx 1 0x630 s 6 D3 00 00 02 0B 03 
	11:50:34:2614 Rx 1 0x631 s 8 FF 00 00 00 00 00 00 00 
	11:50:34:2713 Rx 1 0x630 s 6 D3 00 00 02 0C 03 
	11:50:34:2716 Rx 1 0x631 s 8 FF 00 00 00 00 00 00 00 
	11:50:34:2824 Rx 1 0x630 s 6 D3 00 00 02 0D 03 
	11:50:34:2827 Rx 1 0x631 s 8 FF 00 00 00 00 00 00 00 
	11:50:34:3118 Rx 1 0x630 s 6 D3 00 00 02 0E 03 
	11:50:34:3121 Rx 1 0x631 s 8 FF 00 00 00 00 00 00 00 
	11:50:34:3219 Rx 1 0x630 s 6 D3 00 00 02 0F 03 
	11:50:34:3221 Rx 1 0x631 s 8 FF 00 00 00 00 00 00 00 
	11:50:34:3321 Rx 1 0x630 s 6 D3 00 00 02 10 02 
	11:50:34:3323 Rx 1 0x631 s 8 FF 00 00 00 00 00 00 00 
	11:50:34:3421 Rx 1 0x630 s 6 D3 00 00 02 11 01 
	11:50:34:3424 Rx 1 0x631 s 8 FF 00 00 00 00 00 00 00 
	11:50:34:3523 Rx 1 0x630 s 6 D3 00 00 02 12 01 
	11:50:34:3526 Rx 1 0x631 s 8 FF 00 00 00 00 00 00 00 
	11:50:34:3624 Rx 1 0x630 s 6 D3 00 00 02 13 02 
	11:50:34:3627 Rx 1 0x631 s 8 FF 00 00 00 00 00 00 00 
	11:50:34:3726 Rx 1 0x630 s 6 D3 00 00 02 14 02 
	11:50:34:3729 Rx 1 0x631 s 8 FF 00 00 00 00 00 00 00 
	11:50:34:3827 Rx 1 0x630 s 6 D3 00 00 02 15 01 
	11:50:34:3830 Rx 1 0x631 s 8 FF 00 00 00 00 00 00 00 
	11:50:34:4030 Rx 1 0x630 s 6 D3 00 00 02 16 01 
	11:50:34:4032 Rx 1 0x631 s 8 FF 00 00 00 00 00 00 00 
	11:50:34:4131 Rx 1 0x630 s 6 D3 00 00 02 17 01 
	11:50:34:4133 Rx 1 0x631 s 8 FF 00 00 00 00 00 00 00 
	11:50:34:4232 Rx 1 0x630 s 6 D3 00 00 02 18 02 
	11:50:34:4235 Rx 1 0x631 s 8 FF 00 00 00 00 00 00 00 
	11:50:34:4334 Rx 1 0x630 s 6 D3 00 00 02 19 04 
	11:50:34:4337 Rx 1 0x631 s 8 FF 00 00 00 00 00 00 00 
	11:50:34:4435 Rx 1 0x630 s 6 D3 00 00 02 1A 03 
	11:50:34:4438 Rx 1 0x631 s 8 FF 00 00 00 00 00 00 00 
	11:50:34:4537 Rx 1 0x630 s 6 D3 00 00 02 1B 02 
	11:50:34:4539 Rx 1 0x631 s 8 FF 00 00 00 00 00 00 00 
	11:50:34:4638 Rx 1 0x630 s 6 D3 00 00 02 1C 01 
	11:50:34:4641 Rx 1 0x631 s 8 FF 00 00 00 00 00 00 00 
	11:50:34:4739 Rx 1 0x630 s 6 D3 00 00 02 1D 03 
	11:50:34:4742 Rx 1 0x631 s 8 FF 00 00 00 00 00 00 00 
	11:50:34:4841 Rx 1 0x630 s 6 E2 00 00 00 00 00 
	11:50:34:4843 Rx 1 0x631 s 8 FF 00 00 00 00 00 00 00 
	11:50:34:5044 Rx 1 0x630 s 8 E1 FF 02 00 40 00 47 24 
	11:50:34:5047 Rx 1 0x631 s 8 FF 00 00 00 00 00 00 00 
	11:50:34:5145 Rx 1 0x630 s 8 E1 FF 02 00 40 00 45 DC 
	11:50:34:5148 Rx 1 0x631 s 8 FF 00 00 00 00 00 00 00 
	11:50:34:5247 Rx 1 0x630 s 8 E1 FF 02 00 40 00 47 1A 
	11:50:34:5250 Rx 1 0x631 s 8 FF 00 00 00 00 00 00 00 
	11:50:34:5347 Rx 1 0x630 s 6 E2 00 00 00 01 00 
	11:50:34:5350 Rx 1 0x631 s 8 FF 00 00 00 00 00 00 00 
	11:50:34:5450 Rx 1 0x630 s 8 E1 FF 02 00 40 00 46 F8 
	11:50:34:5453 Rx 1 0x631 s 8 FF 00 00 00 00 00 00 00 
	11:50:34:5552 Rx 1 0x630 s 8 E1 FF 02 00 40 00 47 1E 
	11:50:34:5554 Rx 1 0x631 s 8 FF 00 00 00 00 00 00 00 
	11:50:34:5653 Rx 1 0x630 s 8 E1 FF 02 00 40 00 47 10 
	11:50:34:5656 Rx 1 0x631 s 8 FF 00 00 00 00 00 00 00 
	11:50:34:5753 Rx 1 0x630 s 6 E2 00 00 00 02 00 
	11:50:34:5756 Rx 1 0x631 s 8 FF 00 00 00 00 00 00 00 
	11:50:34:5856 Rx 1 0x630 s 8 E1 FF 02 00 40 00 47 12 
	11:50:34:5858 Rx 1 0x631 s 8 FF 00 00 00 00 00 00 00 
	11:50:34:6059 Rx 1 0x630 s 8 E1 FF 02 00 40 00 D4 3E 
	11:50:34:6062 Rx 1 0x631 s 8 FF 00 00 00 00 00 00 00 
	11:50:34:6161 Rx 1 0x630 s 8 E1 FF 02 00 40 00 D4 40 
	11:50:34:6164 Rx 1 0x631 s 8 FF 00 00 00 00 00 00 00 
	11:50:34:6261 Rx 1 0x630 s 6 E2 00 00 00 03 00 
	11:50:34:6264 Rx 1 0x631 s 8 FF 00 00 00 00 00 00 00 
	11:50:34:6365 Rx 1 0x630 s 8 E1 FF 02 00 40 00 D4 42 
	11:50:34:6367 Rx 1 0x631 s 8 FF 00 00 00 00 00 00 00 
	11:50:34:6466 Rx 1 0x630 s 8 E1 FF 02 00 40 00 D4 44 
	11:50:34:6469 Rx 1 0x631 s 8 FF 00 00 00 00 00 00 00 
	11:50:34:6568 Rx 1 0x630 s 8 E1 FF 02 00 40 00 D4 46 
	11:50:34:6571 Rx 1 0x631 s 8 FF 00 00 00 00 00 00 00 
	11:50:34:6669 Rx 1 0x630 s 6 E2 00 00 00 04 00 
	11:50:34:6671 Rx 1 0x631 s 8 FF 00 00 00 00 00 00 00 
	11:50:34:6771 Rx 1 0x630 s 8 E1 FF 02 00 40 00 D4 48 
	11:50:34:6774 Rx 1 0x631 s 8 FF 00 00 00 00 00 00 00 
	11:50:34:6873 Rx 1 0x630 s 8 E1 FF 02 00 40 00 D4 4A 
	11:50:34:6876 Rx 1 0x631 s 8 FF 00 00 00 00 00 00 00 
	11:50:34:7075 Rx 1 0x630 s 8 E1 FF 02 00 40 00 D4 4C 
	11:50:34:7078 Rx 1 0x631 s 8 FF 00 00 00 00 00 00 00 
	11:50:34:7175 Rx 1 0x630 s 6 E2 00 00 00 05 00 
	11:50:34:7178 Rx 1 0x631 s 8 FF 00 00 00 00 00 00 00 
	11:50:34:7278 Rx 1 0x630 s 8 E1 FF 02 00 40 00 D4 4E 
	11:50:34:7281 Rx 1 0x631 s 8 FF 00 00 00 00 00 00 00 
	11:50:34:7379 Rx 1 0x630 s 8 E1 FF 02 00 40 00 D4 50 
	11:50:34:7382 Rx 1 0x631 s 8 FF 00 00 00 00 00 00 00 
	11:50:34:7481 Rx 1 0x630 s 8 E1 FF 02 00 40 00 46 E8 
	11:50:34:7484 Rx 1 0x631 s 8 FF 00 00 00 00 00 00 00 
	11:50:34:7581 Rx 1 0x630 s 6 E2 00 00 00 06 00 
	11:50:34:7584 Rx 1 0x631 s 8 FF 00 00 00 00 00 00 00 
	11:50:34:7684 Rx 1 0x630 s 8 E1 FF 02 00 40 00 46 1E 
	11:50:34:7687 Rx 1 0x631 s 8 FF 00 00 00 00 00 00 00 
	11:50:34:7785 Rx 1 0x630 s 8 E1 FF 02 00 40 00 E2 62 
	11:50:34:7788 Rx 1 0x631 s 8 FF 00 00 00 00 00 00 00 
	11:50:34:7886 Rx 1 0x630 s 8 E1 FF 01 00 40 00 48 82 
	11:50:34:7889 Rx 1 0x631 s 8 FF 00 00 00 00 00 00 00 
	11:50:34:8088 Rx 1 0x630 s 6 E2 00 00 00 07 00 
	11:50:34:8090 Rx 1 0x631 s 8 FF 00 00 00 00 00 00 00 
	11:50:34:8191 Rx 1 0x630 s 8 E1 FF 02 00 40 00 48 DC 
	11:50:34:8193 Rx 1 0x631 s 8 FF 00 00 00 00 00 00 00 
	11:50:34:8292 Rx 1 0x630 s 8 E1 FF 02 00 40 00 48 B0 
	11:50:34:8300 Rx 1 0x631 s 8 FF 00 00 00 00 00 00 00 
	11:50:34:8393 Rx 1 0x630 s 8 E1 FF 02 00 40 00 48 80 
	11:50:34:8396 Rx 1 0x631 s 8 FF 00 00 00 00 00 00 00 
	11:50:34:8494 Rx 1 0x630 s 6 E2 00 00 00 08 00 
	11:50:34:8496 Rx 1 0x631 s 8 FF 00 00 00 00 00 00 00 
	11:50:34:8596 Rx 1 0x630 s 8 E1 FF 02 00 40 00 BC E8 
	11:50:34:8599 Rx 1 0x631 s 8 FF 00 00 00 00 00 00 00 
	11:50:34:8698 Rx 1 0x630 s 8 E1 FF 02 00 40 00 BC EC 
	11:50:34:8701 Rx 1 0x631 s 8 FF 00 00 00 00 00 00 00 
	11:50:34:8802 Rx 1 0x630 s 8 E1 FF 02 00 40 00 BC 96 
	11:50:34:8804 Rx 1 0x631 s 8 FF 00 00 00 00 00 00 00 
	11:50:34:9102 Rx 1 0x630 s 6 E2 00 00 00 09 00 
	11:50:34:9104 Rx 1 0x631 s 8 FF 00 00 00 00 00 00 00 
	11:50:34:9204 Rx 1 0x630 s 8 E1 FF 02 00 40 00 81 F0 
	11:50:34:9207 Rx 1 0x631 s 8 FF 00 00 00 00 00 00 00 
	11:50:34:9306 Rx 1 0x630 s 8 E1 FF 02 00 40 00 81 F2 
	11:50:34:9308 Rx 1 0x631 s 8 FF 00 00 00 00 00 00 00 
	11:50:34:9407 Rx 1 0x630 s 8 E1 FF 01 00 40 00 81 75 
	11:50:34:9409 Rx 1 0x631 s 8 FF 00 00 00 00 00 00 00 
	11:50:34:9507 Rx 1 0x630 s 6 E2 00 00 00 0A 00 
	11:50:34:9510 Rx 1 0x631 s 8 FF 00 00 00 00 00 00 00 
	11:50:34:9610 Rx 1 0x630 s 8 E1 FF 02 00 40 00 BC 9A 
	11:50:34:9613 Rx 1 0x631 s 8 FF 00 00 00 00 00 00 00 
	11:50:34:9711 Rx 1 0x630 s 8 E1 FF 01 00 40 00 BC 9D 
	11:50:34:9714 Rx 1 0x631 s 8 FF 00 00 00 00 00 00 00 
	11:50:34:9824 Rx 1 0x630 s 8 E1 FF 02 00 40 00 BC EE 
	11:50:34:9827 Rx 1 0x631 s 8 FF 00 00 00 00 00 00 00 
	11:50:35:0115 Rx 1 0x630 s 6 E2 00 00 00 0B 00 
	11:50:35:0117 Rx 1 0x631 s 8 FF 00 00 00 00 00 00 00 
	11:50:35:0217 Rx 1 0x630 s 8 E1 FF 04 00 40 00 B4 18 
	11:50:35:0220 Rx 1 0x631 s 8 FF 00 00 00 00 00 00 00 
	11:50:35:0318 Rx 1 0x630 s 8 E1 FF 02 00 40 00 B4 24 
	11:50:35:0321 Rx 1 0x631 s 8 FF 00 00 00 00 00 00 00 
	11:50:35:0419 Rx 1 0x630 s 6 E2 00 00 00 0C 00 
	11:50:35:0421 Rx 1 0x631 s 8 FF 00 00 00 00 00 00 00 
	11:50:35:0522 Rx 1 0x630 s 8 E1 FF 02 00 40 00 B4 1C 
	11:50:35:0525 Rx 1 0x631 s 8 FF 00 00 00 00 00 00 00 
	11:50:35:0623 Rx 1 0x630 s 8 E1 FF 01 00 40 00 B5 4C 
	11:50:35:0626 Rx 1 0x631 s 8 FF 00 00 00 00 00 00 00 
	11:50:35:0725 Rx 1 0x630 s 8 E1 FF 02 00 40 00 BC BC 
	11:50:35:0728 Rx 1 0x631 s 8 FF 00 00 00 00 00 00 00 
	11:50:35:0833 Rx 1 0x630 s 6 E2 00 00 00 0D 00 
	11:50:35:0836 Rx 1 0x631 s 8 FF 00 00 00 00 00 00 00 
	11:50:35:1030 Rx 1 0x630 s 8 E1 FF 02 00 40 00 B5 58 
	11:50:35:1032 Rx 1 0x631 s 8 FF 00 00 00 00 00 00 00 
	11:50:35:1131 Rx 1 0x630 s 8 E1 FF 02 00 40 00 BF 14 
	11:50:35:1134 Rx 1 0x631 s 8 FF 00 00 00 00 00 00 00 
	11:50:35:1232 Rx 1 0x630 s 8 E1 FF 01 00 40 00 BE F8 
	11:50:35:1235 Rx 1 0x631 s 8 FF 00 00 00 00 00 00 00 
	11:50:35:1333 Rx 1 0x630 s 6 E2 00 00 00 0E 00 
	11:50:35:1335 Rx 1 0x631 s 8 FF 00 00 00 00 00 00 00 
	11:50:35:1435 Rx 1 0x630 s 8 E1 FF 02 00 40 00 BF 1C 
	11:50:35:1438 Rx 1 0x631 s 8 FF 00 00 00 00 00 00 00 
	11:50:35:1537 Rx 1 0x630 s 8 E1 FF 02 00 40 00 BF 20 
	11:50:35:1539 Rx 1 0x631 s 8 FF 00 00 00 00 00 00 00 
	11:50:35:1638 Rx 1 0x630 s 8 E1 FF 02 00 40 00 C1 74 
	11:50:35:1641 Rx 1 0x631 s 8 FF 00 00 00 00 00 00 00 
	11:50:35:1738 Rx 1 0x630 s 6 E2 00 00 00 0F 00 
	11:50:35:1741 Rx 1 0x631 s 8 FF 00 00 00 00 00 00 00 
	11:50:35:1841 Rx 1 0x630 s 8 E1 FF 02 00 40 00 81 D8 
	11:50:35:1843 Rx 1 0x631 s 8 FF 00 00 00 00 00 00 00 
	11:50:35:2043 Rx 1 0x630 s 8 E1 FF 01 00 40 00 E2 CB 
	11:50:35:2046 Rx 1 0x631 s 8 FF 00 00 00 00 00 00 00 
	11:50:35:2145 Rx 1 0x630 s 8 E1 FF 01 00 40 00 81 D4 
	11:50:35:2147 Rx 1 0x631 s 8 FF 00 00 00 00 00 00 00 
	11:50:35:2246 Rx 1 0x630 s 8 E1 FF 01 00 40 00 B6 46 
	11:50:35:2249 Rx 1 0x631 s 8 FF 00 00 00 00 00 00 00 
	11:50:35:2347 Rx 1 0x630 s 8 E1 FF 01 00 40 00 48 E0 
	11:50:35:2350 Rx 1 0x631 s 8 FF 00 00 00 00 00 00 00 
	11:50:35:2448 Rx 1 0x630 s 6 E2 00 00 00 10 00 
	11:50:35:2451 Rx 1 0x631 s 8 FF 00 00 00 00 00 00 00 
	11:50:35:2551 Rx 1 0x630 s 8 E1 FF 01 00 40 00 48 E9 
	11:50:35:2553 Rx 1 0x631 s 8 FF 00 00 00 00 00 00 00 
	11:50:35:2652 Rx 1 0x630 s 8 E1 FF 01 00 40 00 49 10 
	11:50:35:2655 Rx 1 0x631 s 8 FF 00 00 00 00 00 00 00 
	11:50:35:2753 Rx 1 0x630 s 8 E1 FF 02 00 40 00 4F A6 
	11:50:35:2756 Rx 1 0x631 s 8 FF 00 00 00 00 00 00 00 
	11:50:35:2855 Rx 1 0x630 s 8 E1 FF 02 00 40 00 E2 64 
	11:50:35:2858 Rx 1 0x631 s 8 FF 00 00 00 00 00 00 00 
	11:50:35:3056 Rx 1 0x630 s 6 E2 00 00 00 11 00 
	11:50:35:3059 Rx 1 0x631 s 8 FF 00 00 00 00 00 00 00 
	11:50:35:3159 Rx 1 0x630 s 8 E1 FF 01 00 40 00 41 73 
	11:50:35:3161 Rx 1 0x631 s 8 FF 00 00 00 00 00 00 00 
	11:50:35:3260 Rx 1 0x630 s 8 E1 FF 01 00 40 00 44 1C 
	11:50:35:3263 Rx 1 0x631 s 8 FF 00 00 00 00 00 00 00 
	11:50:35:3362 Rx 1 0x630 s 8 E1 FF 01 00 40 00 44 3D 
	11:50:35:3364 Rx 1 0x631 s 8 FF 00 00 00 00 00 00 00 
	11:50:35:3463 Rx 1 0x630 s 8 E1 FF 01 00 40 00 44 3E 
	11:50:35:3466 Rx 1 0x631 s 8 FF 00 00 00 00 00 00 00 
	11:50:35:3565 Rx 1 0x630 s 8 E1 FF 01 00 40 00 41 F4 
	11:50:35:3567 Rx 1 0x631 s 8 FF 00 00 00 00 00 00 00 
	11:50:35:3665 Rx 1 0x630 s 6 E2 00 00 00 12 00 
	11:50:35:3667 Rx 1 0x631 s 8 FF 00 00 00 00 00 00 00 
	11:50:35:3868 Rx 1 0x630 s 8 E1 FF 02 00 40 00 E2 66 
	11:50:35:3871 Rx 1 0x631 s 8 FF 00 00 00 00 00 00 00 
	11:50:35:4071 Rx 1 0x630 s 8 E1 FF 04 00 40 00 42 00 
	11:50:35:4073 Rx 1 0x631 s 8 FF 00 00 00 00 00 00 00 
	11:50:35:4171 Rx 1 0x630 s 6 E2 00 00 00 13 00 
	11:50:35:4173 Rx 1 0x631 s 8 FF 00 00 00 00 00 00 00 
	11:50:35:4273 Rx 1 0x630 s 8 E1 FF 02 00 40 00 41 6E 
	11:50:35:4276 Rx 1 0x631 s 8 FF 00 00 00 00 00 00 00 
	11:50:35:4375 Rx 1 0x630 s 8 E1 FF 02 00 40 00 41 60 
	11:50:35:4378 Rx 1 0x631 s 8 FF 00 00 00 00 00 00 00 
	11:50:35:4476 Rx 1 0x630 s 8 E1 FF 02 00 40 00 41 28 
	11:50:35:4479 Rx 1 0x631 s 8 FF 00 00 00 00 00 00 00 
	11:50:35:4577 Rx 1 0x630 s 6 E2 00 00 00 14 00 
	11:50:35:4579 Rx 1 0x631 s 8 FF 00 00 00 00 00 00 00 
	11:50:35:4679 Rx 1 0x630 s 8 E1 FF 01 00 40 00 42 1A 
	11:50:35:4682 Rx 1 0x631 s 8 FF 00 00 00 00 00 00 00 
	11:50:35:4781 Rx 1 0x630 s 8 E1 FF 01 00 40 00 42 1B 
	11:50:35:4783 Rx 1 0x631 s 8 FF 00 00 00 00 00 00 00 
	11:50:35:4882 Rx 1 0x630 s 8 E1 FF 01 00 40 00 42 1C 
	11:50:35:4885 Rx 1 0x631 s 8 FF 00 00 00 00 00 00 00 
	11:50:35:5084 Rx 1 0x630 s 8 E1 FF 02 00 40 00 42 18 
	11:50:35:5087 Rx 1 0x631 s 8 FF 00 00 00 00 00 00 00 
	11:50:35:5185 Rx 1 0x630 s 6 E2 00 00 00 15 00 
	11:50:35:5190 Rx 1 0x631 s 8 FF 00 00 00 00 00 00 00 
	11:50:35:5287 Rx 1 0x630 s 8 E1 FF 02 00 40 00 43 0A 
	11:50:35:5290 Rx 1 0x631 s 8 FF 00 00 00 00 00 00 00 
	11:50:35:5389 Rx 1 0x630 s 8 E1 FF 01 00 40 00 E2 CC 
	11:50:35:5391 Rx 1 0x631 s 8 FF 00 00 00 00 00 00 00 
	11:50:35:5490 Rx 1 0x630 s 8 E1 FF 01 00 40 00 E2 CD 
	11:50:35:5493 Rx 1 0x631 s 8 FF 00 00 00 00 00 00 00 
	11:50:35:5592 Rx 1 0x630 s 8 E1 FF 01 00 40 00 E2 CE 
	11:50:35:5594 Rx 1 0x631 s 8 FF 00 00 00 00 00 00 00 
	11:50:35:5693 Rx 1 0x630 s 8 E1 FF 01 00 40 00 E2 CF 
	11:50:35:5695 Rx 1 0x631 s 8 FF 00 00 00 00 00 00 00 
	11:50:35:5793 Rx 1 0x630 s 6 E2 00 00 00 16 00 
	11:50:35:5796 Rx 1 0x631 s 8 FF 00 00 00 00 00 00 00 
	11:50:35:5898 Rx 1 0x630 s 8 E1 FF 01 00 40 00 E2 D0 
	11:50:35:5901 Rx 1 0x631 s 8 FF 00 00 00 00 00 00 00 
	11:50:35:6097 Rx 1 0x630 s 8 E1 FF 01 00 40 00 E2 D1 
	11:50:35:6100 Rx 1 0x631 s 8 FF 00 00 00 00 00 00 00 
	11:50:35:6300 Rx 1 0x630 s 8 E1 FF 01 00 40 00 E2 D2 
	11:50:35:6303 Rx 1 0x631 s 8 FF 00 00 00 00 00 00 00 
	11:50:35:6401 Rx 1 0x630 s 8 E1 FF 01 00 40 00 E2 D3 
	11:50:35:6404 Rx 1 0x631 s 8 FF 00 00 00 00 00 00 00 
	11:50:35:6503 Rx 1 0x630 s 8 E1 FF 01 00 40 00 E2 D4 
	11:50:35:6505 Rx 1 0x631 s 8 FF 00 00 00 00 00 00 00 
	11:50:35:6604 Rx 1 0x630 s 8 E1 FF 01 00 40 00 E2 D5 
	11:50:35:6607 Rx 1 0x631 s 8 FF 00 00 00 00 00 00 00 
	11:50:35:6704 Rx 1 0x630 s 6 E2 00 00 00 17 00 
	11:50:35:6707 Rx 1 0x631 s 8 FF 00 00 00 00 00 00 00 
	11:50:35:6807 Rx 1 0x630 s 8 E1 FF 01 00 40 00 E2 C7 
	11:50:35:6809 Rx 1 0x631 s 8 FF 00 00 00 00 00 00 00 
	11:50:35:7041 Rx 1 0x630 s 8 E1 FF 01 00 40 00 E2 D6 
	11:50:35:7043 Rx 1 0x631 s 8 FF 00 00 00 00 00 00 00 
	11:50:35:7143 Rx 1 0x630 s 8 E1 FF 01 00 40 00 E2 D7 
	11:50:35:7146 Rx 1 0x631 s 8 FF 00 00 00 00 00 00 00 
	11:50:35:7245 Rx 1 0x630 s 8 E1 FF 01 00 40 00 E2 D8 
	11:50:35:7248 Rx 1 0x631 s 8 FF 00 00 00 00 00 00 00 
	11:50:35:7346 Rx 1 0x630 s 8 E1 FF 01 00 40 00 E2 D9 
	11:50:35:7349 Rx 1 0x631 s 8 FF 00 00 00 00 00 00 00 
	11:50:35:7448 Rx 1 0x630 s 8 E1 FF 01 00 40 00 E2 DA 
	11:50:35:7450 Rx 1 0x631 s 8 FF 00 00 00 00 00 00 00 
	11:50:35:7548 Rx 1 0x630 s 6 E2 00 00 00 18 00 
	11:50:35:7551 Rx 1 0x631 s 8 FF 00 00 00 00 00 00 00 
	11:50:35:7651 Rx 1 0x630 s 8 E1 FF 01 00 40 00 E2 DB 
	11:50:35:7653 Rx 1 0x631 s 8 FF 00 00 00 00 00 00 00 
	11:50:35:7752 Rx 1 0x630 s 8 E1 FF 01 00 40 00 E2 DC 
	11:50:35:7755 Rx 1 0x631 s 8 FF 00 00 00 00 00 00 00 
	11:50:35:7854 Rx 1 0x630 s 8 E1 FF 01 00 40 00 E2 DD 
	11:50:35:7856 Rx 1 0x631 s 8 FF 00 00 00 00 00 00 00 
	11:50:35:8056 Rx 1 0x630 s 8 E1 FF 01 00 40 00 E2 DE 
	11:50:35:8059 Rx 1 0x631 s 8 FF 00 00 00 00 00 00 00 
	11:50:35:8158 Rx 1 0x630 s 8 E1 FF 01 00 40 00 E2 DF 
	11:50:35:8160 Rx 1 0x631 s 8 FF 00 00 00 00 00 00 00 
	11:50:35:8258 Rx 1 0x630 s 6 E2 00 00 00 19 00 
	11:50:35:8260 Rx 1 0x631 s 8 FF 00 00 00 00 00 00 00 
	11:50:35:8360 Rx 1 0x630 s 8 E1 FF 02 00 40 00 41 2A 
	11:50:35:8363 Rx 1 0x631 s 8 FF 00 00 00 00 00 00 00 
	11:50:35:8462 Rx 1 0x630 s 8 E1 FF 02 00 40 00 41 62 
	11:50:35:8464 Rx 1 0x631 s 8 FF 00 00 00 00 00 00 00 
	11:50:35:8563 Rx 1 0x630 s 8 E1 FF 01 00 40 00 4D 70 
	11:50:35:8566 Rx 1 0x631 s 8 FF 00 00 00 00 00 00 00 
	11:50:35:8665 Rx 1 0x630 s 8 E1 FF 01 00 40 00 41 34 
	11:50:35:8668 Rx 1 0x631 s 8 FF 00 00 00 00 00 00 00 
	11:50:35:8765 Rx 1 0x630 s 6 E2 00 00 00 1A 00 
	11:50:35:8768 Rx 1 0x631 s 8 FF 00 00 00 00 00 00 00 
	11:50:35:8868 Rx 1 0x630 s 8 E1 FF 02 00 40 00 44 7C 
	11:50:35:8870 Rx 1 0x631 s 8 FF 00 00 00 00 00 00 00 
	11:50:35:9070 Rx 1 0x630 s 8 E1 FF 02 00 40 00 44 78 
	11:50:35:9073 Rx 1 0x631 s 8 FF 00 00 00 00 00 00 00 
	11:50:35:9171 Rx 1 0x630 s 6 E2 00 00 00 1B 00 
	11:50:35:9173 Rx 1 0x631 s 8 FF 00 00 00 00 00 00 00 
	11:50:35:9273 Rx 1 0x630 s 8 E1 FF 04 00 40 00 44 C0 
	11:50:35:9276 Rx 1 0x631 s 8 FF 00 00 00 00 00 00 00 
	11:50:35:9374 Rx 1 0x630 s 8 E1 FF 02 00 40 00 E2 5A 
	11:50:35:9377 Rx 1 0x631 s 8 FF 00 00 00 00 00 00 00 
	11:50:35:9474 Rx 1 0x630 s 6 E2 00 00 00 1C 00 
	11:50:35:9477 Rx 1 0x631 s 8 FF 00 00 00 00 00 00 00 
	11:50:35:9578 Rx 1 0x630 s 8 E1 FF 04 00 40 00 E2 40 
	11:50:35:9580 Rx 1 0x631 s 8 FF 00 00 00 00 00 00 00 
	11:50:35:9679 Rx 1 0x630 s 8 E1 FF 01 00 40 00 41 F7 
	11:50:35:9682 Rx 1 0x631 s 8 FF 00 00 00 00 00 00 00 
	11:50:35:9779 Rx 1 0x630 s 6 E2 00 00 00 1D 00 
	11:50:35:9782 Rx 1 0x631 s 8 FF 00 00 00 00 00 00 00 
	11:50:35:9882 Rx 1 0x630 s 8 E1 FF 02 00 40 00 E2 82 
	11:50:35:9885 Rx 1 0x631 s 8 FF 00 00 00 00 00 00 00 
	11:50:36:0085 Rx 1 0x630 s 8 E1 FF 01 00 40 00 E2 CA 
	11:50:36:0087 Rx 1 0x631 s 8 FF 00 00 00 00 00 00 00 
	11:50:36:0186 Rx 1 0x630 s 8 E1 FF 02 00 40 00 46 5A 
	11:50:36:0189 Rx 1 0x631 s 8 FF 00 00 00 00 00 00 00 
	11:50:36:0286 Rx 1 0x630 s 6 E2 00 00 00 1E 00 
	11:50:36:0288 Rx 1 0x631 s 8 FF 00 00 00 00 00 00 00 
	11:50:36:0388 Rx 1 0x630 s 8 E1 FF 02 00 40 00 4C 9A 
	11:50:36:0391 Rx 1 0x631 s 8 FF 00 00 00 00 00 00 00 
	11:50:36:0490 Rx 1 0x630 s 8 E1 FF 01 00 40 00 4C 72 
	11:50:36:0492 Rx 1 0x631 s 8 FF 00 00 00 00 00 00 00 
	11:50:36:0591 Rx 1 0x630 s 8 E1 FF 02 00 40 00 4C 70 
	11:50:36:0594 Rx 1 0x631 s 8 FF 00 00 00 00 00 00 00 
	11:50:36:0692 Rx 1 0x630 s 6 E2 00 00 01 00 00 
	11:50:36:0694 Rx 1 0x631 s 8 FF 00 00 00 00 00 00 00 
	11:50:36:0794 Rx 1 0x630 s 8 E1 FF 04 00 40 00 E2 00 
	11:50:36:0803 Rx 1 0x631 s 8 FF 00 00 00 00 00 00 00 
	11:50:36:1103 Rx 1 0x630 s 6 E2 00 00 01 01 00 
	11:50:36:1106 Rx 1 0x631 s 8 FF 00 00 00 00 00 00 00 
	11:50:36:1206 Rx 1 0x630 s 8 E1 FF 04 00 40 00 E2 04 
	11:50:36:1209 Rx 1 0x631 s 8 FF 00 00 00 00 00 00 00 
	11:50:36:1306 Rx 1 0x630 s 6 E2 00 00 01 02 00 
	11:50:36:1309 Rx 1 0x631 s 8 FF 00 00 00 00 00 00 00 
	11:50:36:1408 Rx 1 0x630 s 8 E1 FF 04 00 40 00 E2 08 
	11:50:36:1411 Rx 1 0x631 s 8 FF 00 00 00 00 00 00 00 
	11:50:36:1510 Rx 1 0x630 s 8 E1 FF 02 00 40 00 41 70 
	11:50:36:1513 Rx 1 0x631 s 8 FF 00 00 00 00 00 00 00 
	11:50:36:1611 Rx 1 0x630 s 6 E2 00 00 01 03 00 
	11:50:36:1613 Rx 1 0x631 s 8 FF 00 00 00 00 00 00 00 
	11:50:36:1714 Rx 1 0x630 s 8 E1 FF 02 00 40 00 41 5C 
	11:50:36:1716 Rx 1 0x631 s 8 FF 00 00 00 00 00 00 00 
	11:50:36:1825 Rx 1 0x630 s 8 E1 FF 02 00 40 00 E2 BA 
	11:50:36:1827 Rx 1 0x631 s 8 FF 00 00 00 00 00 00 00 
	11:50:36:2117 Rx 1 0x630 s 6 E2 00 00 01 04 00 
	11:50:36:2120 Rx 1 0x631 s 8 FF 00 00 00 00 00 00 00 
	11:50:36:2220 Rx 1 0x630 s 8 E1 FF 04 00 40 00 4D 8C 
	11:50:36:2222 Rx 1 0x631 s 8 FF 00 00 00 00 00 00 00 
	11:50:36:2320 Rx 1 0x630 s 6 E2 00 00 01 05 00 
	11:50:36:2323 Rx 1 0x631 s 8 FF 00 00 00 00 00 00 00 
	11:50:36:2422 Rx 1 0x630 s 8 E1 FF 04 00 40 00 E2 0C 
	11:50:36:2425 Rx 1 0x631 s 8 FF 00 00 00 00 00 00 00 
	11:50:36:2523 Rx 1 0x630 s 6 E2 00 00 01 06 00 
	11:50:36:2525 Rx 1 0x631 s 8 FF 00 00 00 00 00 00 00 
	11:50:36:2625 Rx 1 0x630 s 8 E1 FF 04 00 40 00 E2 10 
	11:50:36:2628 Rx 1 0x631 s 8 FF 00 00 00 00 00 00 00 
	11:50:36:2727 Rx 1 0x630 s 8 E1 FF 02 00 40 00 4C A8 
	11:50:36:2729 Rx 1 0x631 s 8 FF 00 00 00 00 00 00 00 
	11:50:36:2827 Rx 1 0x630 s 6 E2 00 00 01 07 00 
	11:50:36:2830 Rx 1 0x631 s 8 FF 00 00 00 00 00 00 00 
	11:50:36:3031 Rx 1 0x630 s 8 E1 FF 02 00 40 00 44 74 
	11:50:36:3033 Rx 1 0x631 s 8 FF 00 00 00 00 00 00 00 
	11:50:36:3132 Rx 1 0x630 s 8 E1 FF 04 00 40 00 4C 9C 
	11:50:36:3135 Rx 1 0x631 s 8 FF 00 00 00 00 00 00 00 
	11:50:36:3232 Rx 1 0x630 s 6 E2 00 00 01 08 00 
	11:50:36:3235 Rx 1 0x631 s 8 FF 00 00 00 00 00 00 00 
	11:50:36:3335 Rx 1 0x630 s 8 E1 FF 04 00 40 00 4D 5C 
	11:50:36:3337 Rx 1 0x631 s 8 FF 00 00 00 00 00 00 00 
	11:50:36:3436 Rx 1 0x630 s 8 E1 FF 02 00 40 00 4C F8 
	11:50:36:3439 Rx 1 0x631 s 8 FF 00 00 00 00 00 00 00 
	11:50:36:3536 Rx 1 0x630 s 6 E2 00 00 01 09 00 
	11:50:36:3539 Rx 1 0x631 s 8 FF 00 00 00 00 00 00 00 
	11:50:36:3639 Rx 1 0x630 s 8 E1 FF 04 00 40 00 E2 34 
	11:50:36:3642 Rx 1 0x631 s 8 FF 00 00 00 00 00 00 00 
	11:50:36:3740 Rx 1 0x630 s 8 E1 FF 01 00 40 00 E2 C8 
	11:50:36:3743 Rx 1 0x631 s 8 FF 00 00 00 00 00 00 00 
	11:50:36:3840 Rx 1 0x630 s 6 E2 00 00 01 0A 00 
	11:50:36:3843 Rx 1 0x631 s 8 FF 00 00 00 00 00 00 00 
	11:50:36:4044 Rx 1 0x630 s 8 E1 FF 02 00 40 00 E2 92 
	11:50:36:4047 Rx 1 0x631 s 8 FF 00 00 00 00 00 00 00 
	11:50:36:4146 Rx 1 0x630 s 8 E1 FF 02 00 40 00 E2 94 
	11:50:36:4148 Rx 1 0x631 s 8 FF 00 00 00 00 00 00 00 
	11:50:36:4248 Rx 1 0x630 s 8 E1 FF 02 00 40 00 E2 96 
	11:50:36:4251 Rx 1 0x631 s 8 FF 00 00 00 00 00 00 00 
	11:50:36:4347 Rx 1 0x630 s 6 E2 00 00 01 0B 00 
	11:50:36:4350 Rx 1 0x631 s 8 FF 00 00 00 00 00 00 00 
	11:50:36:4450 Rx 1 0x630 s 8 E1 FF 02 00 40 00 E2 98 
	11:50:36:4453 Rx 1 0x631 s 8 FF 00 00 00 00 00 00 00 
	11:50:36:4551 Rx 1 0x630 s 8 E1 FF 02 00 40 00 E2 9A 
	11:50:36:4554 Rx 1 0x631 s 8 FF 00 00 00 00 00 00 00 
	11:50:36:4653 Rx 1 0x630 s 8 E1 FF 02 00 40 00 E2 9C 
	11:50:36:4655 Rx 1 0x631 s 8 FF 00 00 00 00 00 00 00 
	11:50:36:4753 Rx 1 0x630 s 6 E2 00 00 01 0C 00 
	11:50:36:4756 Rx 1 0x631 s 8 FF 00 00 00 00 00 00 00 
	11:50:36:4856 Rx 1 0x630 s 8 E1 FF 02 00 40 00 E2 9E 
	11:50:36:4859 Rx 1 0x631 s 8 FF 00 00 00 00 00 00 00 
	11:50:36:5058 Rx 1 0x630 s 8 E1 FF 02 00 40 00 E2 A0 
	11:50:36:5061 Rx 1 0x631 s 8 FF 00 00 00 00 00 00 00 
	11:50:36:5160 Rx 1 0x630 s 8 E1 FF 02 00 40 00 E2 A2 
	11:50:36:5162 Rx 1 0x631 s 8 FF 00 00 00 00 00 00 00 
	11:50:36:5260 Rx 1 0x630 s 6 E2 00 00 01 0D 00 
	11:50:36:5263 Rx 1 0x631 s 8 FF 00 00 00 00 00 00 00 
	11:50:36:5362 Rx 1 0x630 s 8 E1 FF 02 00 40 00 E2 A4 
	11:50:36:5365 Rx 1 0x631 s 8 FF 00 00 00 00 00 00 00 
	11:50:36:5464 Rx 1 0x630 s 8 E1 FF 01 00 40 00 4D 77 
	11:50:36:5466 Rx 1 0x631 s 8 FF 00 00 00 00 00 00 00 
	11:50:36:5566 Rx 1 0x630 s 8 E1 FF 01 00 40 00 44 15 
	11:50:36:5568 Rx 1 0x631 s 8 FF 00 00 00 00 00 00 00 
	11:50:36:5667 Rx 1 0x630 s 8 E1 FF 01 00 40 00 44 08 
	11:50:36:5670 Rx 1 0x631 s 8 FF 00 00 00 00 00 00 00 
	11:50:36:5772 Rx 1 0x630 s 6 E2 00 00 01 0E 00 
	11:50:36:5775 Rx 1 0x631 s 8 FF 00 00 00 00 00 00 00 
	11:50:36:5871 Rx 1 0x630 s 8 E1 FF 02 00 40 00 44 18 
	11:50:36:5874 Rx 1 0x631 s 8 FF 00 00 00 00 00 00 00 
	11:50:36:6074 Rx 1 0x630 s 8 E1 FF 02 00 40 00 43 3C 
	11:50:36:6077 Rx 1 0x631 s 8 FF 00 00 00 00 00 00 00 
	11:50:36:6276 Rx 1 0x630 s 8 E1 FF 01 00 40 00 43 40 
	11:50:36:6279 Rx 1 0x631 s 8 FF 00 00 00 00 00 00 00 
	11:50:36:6376 Rx 1 0x630 s 6 E2 00 00 01 0F 00 
	11:50:36:6379 Rx 1 0x631 s 8 FF 00 00 00 00 00 00 00 
	11:50:36:6479 Rx 1 0x630 s 8 E1 FF 02 00 40 00 43 3E 
	11:50:36:6482 Rx 1 0x631 s 8 FF 00 00 00 00 00 00 00 
	11:50:36:6581 Rx 1 0x630 s 8 E1 FF 01 00 40 00 43 41 
	11:50:36:6584 Rx 1 0x631 s 8 FF 00 00 00 00 00 00 00 
	11:50:36:6683 Rx 1 0x630 s 8 E1 FF 01 00 40 00 43 AE 
	11:50:36:6685 Rx 1 0x631 s 8 FF 00 00 00 00 00 00 00 
	11:50:36:6784 Rx 1 0x630 s 8 E1 FF 01 00 40 00 4D 72 
	11:50:36:6787 Rx 1 0x631 s 8 FF 00 00 00 00 00 00 00 
	11:50:36:6885 Rx 1 0x630 s 8 E1 FF 01 00 40 00 43 42 
	11:50:36:6888 Rx 1 0x631 s 8 FF 00 00 00 00 00 00 00 
	11:50:36:7086 Rx 1 0x630 s 6 E2 00 00 01 10 00 
	11:50:36:7089 Rx 1 0x631 s 8 FF 00 00 00 00 00 00 00 
	11:50:36:7189 Rx 1 0x630 s 8 E1 FF 01 00 40 00 4D 73 
	11:50:36:7192 Rx 1 0x631 s 8 FF 00 00 00 00 00 00 00 
	11:50:36:7290 Rx 1 0x630 s 8 E1 FF 01 00 40 00 44 14 
	11:50:36:7293 Rx 1 0x631 s 8 FF 00 00 00 00 00 00 00 
	11:50:36:7392 Rx 1 0x630 s 8 E1 FF 01 00 40 00 43 43 
	11:50:36:7395 Rx 1 0x631 s 8 FF 00 00 00 00 00 00 00 
	11:50:36:7493 Rx 1 0x630 s 8 E1 FF 01 00 40 00 44 42 
	11:50:36:7496 Rx 1 0x631 s 8 FF 00 00 00 00 00 00 00 
	11:50:36:7595 Rx 1 0x630 s 8 E1 FF 02 00 40 00 44 2A 
	11:50:36:7598 Rx 1 0x631 s 8 FF 00 00 00 00 00 00 00 
	11:50:36:7695 Rx 1 0x630 s 6 E2 00 00 01 11 00 
	11:50:36:7697 Rx 1 0x631 s 8 FF 00 00 00 00 00 00 00 
	11:50:36:7803 Rx 1 0x630 s 8 E1 FF 02 00 40 00 44 1E 
	11:50:36:7808 Rx 1 0x631 s 8 FF 00 00 00 00 00 00 00 
	11:50:36:8030 Rx 1 0x630 s 8 E1 FF 02 00 40 00 43 AC 
	11:50:36:8033 Rx 1 0x631 s 8 FF 00 00 00 00 00 00 00 
	11:50:36:8165 Rx 1 0x630 s 8 E1 FF 01 00 40 00 44 17 
	11:50:36:8168 Rx 1 0x631 s 8 FF 00 00 00 00 00 00 00 
	11:50:36:8265 Rx 1 0x630 s 6 E2 00 00 01 12 00 
	11:50:36:8268 Rx 1 0x631 s 8 FF 00 00 00 00 00 00 00 
	11:50:36:8368 Rx 1 0x630 s 8 E1 FF 02 00 40 00 43 B6 
	11:50:36:8370 Rx 1 0x631 s 8 FF 00 00 00 00 00 00 00 
	11:50:36:8469 Rx 1 0x630 s 8 E1 FF 04 00 40 00 E2 18 
	11:50:36:8472 Rx 1 0x631 s 8 FF 00 00 00 00 00 00 00 
	11:50:36:8570 Rx 1 0x630 s 6 E2 00 00 01 13 00 
	11:50:36:8572 Rx 1 0x631 s 8 FF 00 00 00 00 00 00 00 
	11:50:36:8672 Rx 1 0x630 s 8 E1 FF 04 00 40 00 E2 14 
	11:50:36:8675 Rx 1 0x631 s 8 FF 00 00 00 00 00 00 00 
	11:50:36:8773 Rx 1 0x630 s 8 E1 FF 01 00 40 00 46 60 
	11:50:36:8776 Rx 1 0x631 s 8 FF 00 00 00 00 00 00 00 
	11:50:36:8875 Rx 1 0x630 s 8 E1 FF 01 00 40 00 44 16 
	11:50:36:8878 Rx 1 0x631 s 8 FF 00 00 00 00 00 00 00 
	11:50:36:9076 Rx 1 0x630 s 6 E2 00 00 01 14 00 
	11:50:36:9079 Rx 1 0x631 s 8 FF 00 00 00 00 00 00 00 
	11:50:36:9179 Rx 1 0x630 s 8 E1 FF 02 00 40 00 44 82 
	11:50:36:9181 Rx 1 0x631 s 8 FF 00 00 00 00 00 00 00 
	11:50:36:9280 Rx 1 0x630 s 8 E1 FF 02 00 40 00 44 88 
	11:50:36:9283 Rx 1 0x631 s 8 FF 00 00 00 00 00 00 00 
	11:50:36:9382 Rx 1 0x630 s 8 E1 FF 02 00 40 00 44 8A 
	11:50:36:9385 Rx 1 0x631 s 8 FF 00 00 00 00 00 00 00 
	11:50:36:9482 Rx 1 0x630 s 6 E2 00 00 01 15 00 
	11:50:36:9484 Rx 1 0x631 s 8 FF 00 00 00 00 00 00 00 
	11:50:36:9587 Rx 1 0x630 s 8 E1 FF 01 00 40 00 43 B0 
	11:50:36:9589 Rx 1 0x631 s 8 FF 00 00 00 00 00 00 00 
	11:50:36:9688 Rx 1 0x630 s 8 E1 FF 01 00 40 00 44 5F 
	11:50:36:9691 Rx 1 0x631 s 8 FF 00 00 00 00 00 00 00 
	11:50:36:9789 Rx 1 0x630 s 8 E1 FF 01 00 40 00 E2 E0 
	11:50:36:9792 Rx 1 0x631 s 8 FF 00 00 00 00 00 00 00 
	11:50:36:9891 Rx 1 0x630 s 8 E1 FF 01 00 40 00 44 63 
	11:50:36:9894 Rx 1 0x631 s 8 FF 00 00 00 00 00 00 00 
	11:50:37:0092 Rx 1 0x630 s 6 E2 00 00 01 16 00 
	11:50:37:0094 Rx 1 0x631 s 8 FF 00 00 00 00 00 00 00 
	11:50:37:0195 Rx 1 0x630 s 8 E1 FF 04 00 40 00 41 E4 
	11:50:37:0198 Rx 1 0x631 s 8 FF 00 00 00 00 00 00 00 
	11:50:37:0301 Rx 1 0x630 s 8 E1 FF 02 00 40 00 41 2E 
	11:50:37:0307 Rx 1 0x631 s 8 FF 00 00 00 00 00 00 00 
	11:50:37:0396 Rx 1 0x630 s 6 E2 00 00 01 17 00 
	11:50:37:0401 Rx 1 0x631 s 8 FF 00 00 00 00 00 00 00 
	11:50:37:0499 Rx 1 0x630 s 8 E1 FF 02 00 40 00 E2 BC 
	11:50:37:0502 Rx 1 0x631 s 8 FF 00 00 00 00 00 00 00 
	11:50:37:0601 Rx 1 0x630 s 8 E1 FF 04 00 40 00 41 E0 
	11:50:37:0604 Rx 1 0x631 s 8 FF 00 00 00 00 00 00 00 
	11:50:37:0701 Rx 1 0x630 s 6 E2 00 00 01 18 00 
	11:50:37:0703 Rx 1 0x631 s 8 FF 00 00 00 00 00 00 00 
	11:50:37:0804 Rx 1 0x630 s 8 E1 FF 02 00 40 00 41 F2 
	11:50:37:0806 Rx 1 0x631 s 8 FF 00 00 00 00 00 00 00 
	11:50:37:1107 Rx 1 0x630 s 8 E1 FF 02 00 40 00 41 66 
	11:50:37:1110 Rx 1 0x631 s 8 FF 00 00 00 00 00 00 00 
	11:50:37:1208 Rx 1 0x630 s 8 E1 FF 02 00 40 00 41 68 
	11:50:37:1211 Rx 1 0x631 s 8 FF 00 00 00 00 00 00 00 
	11:50:37:1308 Rx 1 0x630 s 6 E2 00 00 01 19 00 
	11:50:37:1311 Rx 1 0x631 s 8 FF 00 00 00 00 00 00 00 
	11:50:37:1411 Rx 1 0x630 s 8 E1 FF 02 00 40 00 E2 BE 
	11:50:37:1413 Rx 1 0x631 s 8 FF 00 00 00 00 00 00 00 
	11:50:37:1513 Rx 1 0x630 s 8 E1 FF 02 00 40 00 44 80 
	11:50:37:1515 Rx 1 0x631 s 8 FF 00 00 00 00 00 00 00 
	11:50:37:1614 Rx 1 0x630 s 8 E1 FF 01 00 40 00 41 36 
	11:50:37:1616 Rx 1 0x631 s 8 FF 00 00 00 00 00 00 00 
	11:50:37:1714 Rx 1 0x630 s 6 E2 00 00 01 1A 00 
	11:50:37:1717 Rx 1 0x631 s 8 FF 00 00 00 00 00 00 00 
	11:50:37:1825 Rx 1 0x630 s 8 E1 FF 04 00 40 00 4C A4 
	11:50:37:1828 Rx 1 0x631 s 8 FF 00 00 00 00 00 00 00 
	11:50:37:2019 Rx 1 0x630 s 8 E1 FF 01 00 40 00 41 F6 
	11:50:37:2022 Rx 1 0x631 s 8 FF 00 00 00 00 00 00 00 
	11:50:37:2119 Rx 1 0x630 s 6 E2 00 00 01 1B 00 
	11:50:37:2122 Rx 1 0x631 s 8 FF 00 00 00 00 00 00 00 
	11:50:37:2222 Rx 1 0x630 s 8 E1 FF 02 00 40 00 4C F2 
	11:50:37:2225 Rx 1 0x631 s 8 FF 00 00 00 00 00 00 00 
	11:50:37:2324 Rx 1 0x630 s 8 E1 FF 02 00 40 00 4C 74 
	11:50:37:2326 Rx 1 0x631 s 8 FF 00 00 00 00 00 00 00 
	11:50:37:2425 Rx 1 0x630 s 8 E1 FF 01 00 40 00 4D 74 
	11:50:37:2428 Rx 1 0x631 s 8 FF 00 00 00 00 00 00 00 
	11:50:37:2527 Rx 1 0x630 s 8 E1 FF 01 00 40 00 4D 75 
	11:50:37:2529 Rx 1 0x631 s 8 FF 00 00 00 00 00 00 00 
	11:50:37:2627 Rx 1 0x630 s 6 E2 00 00 01 1C 00 
	11:50:37:2629 Rx 1 0x631 s 8 FF 00 00 00 00 00 00 00 
	11:50:37:2730 Rx 1 0x630 s 8 E1 FF 01 00 40 00 4D 76 
	11:50:37:2732 Rx 1 0x631 s 8 FF 00 00 00 00 00 00 00 
	11:50:37:2831 Rx 1 0x630 s 8 E1 FF 01 00 40 00 48 F0 
	11:50:37:2833 Rx 1 0x631 s 8 FF 00 00 00 00 00 00 00 
	11:50:37:3033 Rx 1 0x630 s 8 E1 FF 02 00 40 00 4F A8 
	11:50:37:3036 Rx 1 0x631 s 8 FF 00 00 00 00 00 00 00 
	11:50:37:3135 Rx 1 0x630 s 8 E1 FF 02 00 40 00 4F AA 
	11:50:37:3137 Rx 1 0x631 s 8 FF 00 00 00 00 00 00 00 
	11:50:37:3235 Rx 1 0x630 s 6 E2 00 00 01 1D 00 
	11:50:37:3237 Rx 1 0x631 s 8 FF 00 00 00 00 00 00 00 
	11:50:37:3338 Rx 1 0x630 s 8 E1 FF 02 00 40 00 4F AC 
	11:50:37:3341 Rx 1 0x631 s 8 FF 00 00 00 00 00 00 00 
	11:50:37:3439 Rx 1 0x630 s 8 E1 FF 02 00 40 00 55 46 
	11:50:37:3441 Rx 1 0x631 s 8 FF 00 00 00 00 00 00 00 
	11:50:37:3540 Rx 1 0x630 s 8 E1 FF 02 00 40 00 56 D0 
	11:50:37:3543 Rx 1 0x631 s 8 FF 00 00 00 00 00 00 00 
	11:50:37:3641 Rx 1 0x630 s 6 E2 00 00 01 1E 00 
	11:50:37:3643 Rx 1 0x631 s 8 FF 00 00 00 00 00 00 00 
	11:50:37:3743 Rx 1 0x630 s 8 E1 FF 02 00 40 00 56 DC 
	11:50:37:3746 Rx 1 0x631 s 8 FF 00 00 00 00 00 00 00 
	11:50:37:3845 Rx 1 0x630 s 8 E1 FF 02 00 40 00 4F AE 
	11:50:37:3847 Rx 1 0x631 s 8 FF 00 00 00 00 00 00 00 
	11:50:37:4148 Rx 1 0x630 s 8 E1 FF 02 00 40 00 56 62 
	11:50:37:4151 Rx 1 0x631 s 8 FF 00 00 00 00 00 00 00 
	11:50:37:4249 Rx 1 0x630 s 6 E2 00 00 02 00 00 
	11:50:37:4251 Rx 1 0x631 s 8 FF 00 00 00 00 00 00 00 
	11:50:37:4355 Rx 1 0x630 s 8 E1 FF 02 00 40 00 57 1C 
	11:50:37:4357 Rx 1 0x631 s 8 FF 00 00 00 00 00 00 00 
	11:50:37:4454 Rx 1 0x630 s 8 E1 FF 04 00 40 00 E2 2C 
	11:50:37:4457 Rx 1 0x631 s 8 FF 00 00 00 00 00 00 00 
	11:50:37:4554 Rx 1 0x630 s 6 E2 00 00 02 01 00 
	11:50:37:4557 Rx 1 0x631 s 8 FF 00 00 00 00 00 00 00 
	11:50:37:4657 Rx 1 0x630 s 8 E1 FF 02 00 40 00 57 D6 
	11:50:37:4660 Rx 1 0x631 s 8 FF 00 00 00 00 00 00 00 
	11:50:37:4758 Rx 1 0x630 s 8 E1 FF 02 00 40 00 56 D2 
	11:50:37:4761 Rx 1 0x631 s 8 FF 00 00 00 00 00 00 00 
	11:50:37:4860 Rx 1 0x630 s 8 E1 FF 01 00 40 00 57 DC 
	11:50:37:4863 Rx 1 0x631 s 8 FF 00 00 00 00 00 00 00 
	11:50:37:5062 Rx 1 0x630 s 8 E1 FF 01 00 40 00 57 DD 
	11:50:37:5065 Rx 1 0x631 s 8 FF 00 00 00 00 00 00 00 
	11:50:37:5162 Rx 1 0x630 s 6 E2 00 00 02 02 00 
	11:50:37:5165 Rx 1 0x631 s 8 FF 00 00 00 00 00 00 00 
	11:50:37:5265 Rx 1 0x630 s 8 E1 FF 02 00 40 00 56 D4 
	11:50:37:5267 Rx 1 0x631 s 8 FF 00 00 00 00 00 00 00 
	11:50:37:5366 Rx 1 0x630 s 8 E1 FF 02 00 40 00 57 F8 
	11:50:37:5369 Rx 1 0x631 s 8 FF 00 00 00 00 00 00 00 
	11:50:37:5467 Rx 1 0x630 s 6 E2 00 00 02 03 00 
	11:50:37:5469 Rx 1 0x631 s 8 FF 00 00 00 00 00 00 00 
	11:50:37:5569 Rx 1 0x630 s 8 E1 FF 04 00 40 00 DB C0 
	11:50:37:5572 Rx 1 0x631 s 8 FF 00 00 00 00 00 00 00 
	11:50:37:5671 Rx 1 0x630 s 8 E1 FF 02 00 40 00 DC 08 
	11:50:37:5674 Rx 1 0x631 s 8 FF 00 00 00 00 00 00 00 
	11:50:37:5770 Rx 1 0x630 s 6 E2 00 00 02 04 00 
	11:50:37:5773 Rx 1 0x631 s 8 FF 00 00 00 00 00 00 00 
	11:50:37:5873 Rx 1 0x630 s 8 E1 FF 02 00 40 00 56 D8 
	11:50:37:5876 Rx 1 0x631 s 8 FF 00 00 00 00 00 00 00 
	11:50:37:6076 Rx 1 0x630 s 8 E1 FF 02 00 40 00 59 3E 
	11:50:37:6079 Rx 1 0x631 s 8 FF 00 00 00 00 00 00 00 
	11:50:37:6278 Rx 1 0x630 s 8 E1 FF 02 00 40 00 47 30 
	11:50:37:6281 Rx 1 0x631 s 8 FF 00 00 00 00 00 00 00 
	11:50:37:6379 Rx 1 0x630 s 6 E2 00 00 02 05 00 
	11:50:37:6381 Rx 1 0x631 s 8 FF 00 00 00 00 00 00 00 
	11:50:37:6481 Rx 1 0x630 s 8 E1 FF 04 00 40 00 E2 48 
	11:50:37:6484 Rx 1 0x631 s 8 FF 00 00 00 00 00 00 00 
	11:50:37:6581 Rx 1 0x630 s 6 E2 00 00 02 06 00 
	11:50:37:6584 Rx 1 0x631 s 8 FF 00 00 00 00 00 00 00 
	11:50:37:6684 Rx 1 0x630 s 8 E1 FF 04 00 40 00 E2 4C 
	11:50:37:6687 Rx 1 0x631 s 8 FF 00 00 00 00 00 00 00 
	11:50:37:6784 Rx 1 0x630 s 6 E2 00 00 02 07 00 
	11:50:37:6787 Rx 1 0x631 s 8 FF 00 00 00 00 00 00 00 
	11:50:37:6887 Rx 1 0x630 s 8 E1 FF 04 00 40 00 E2 50 
	11:50:37:6889 Rx 1 0x631 s 8 FF 00 00 00 00 00 00 00 
	11:50:37:7089 Rx 1 0x630 s 8 E1 FF 02 00 40 00 5A C6 
	11:50:37:7092 Rx 1 0x631 s 8 FF 00 00 00 00 00 00 00 
	11:50:37:7189 Rx 1 0x630 s 6 E2 00 00 02 08 00 
	11:50:37:7191 Rx 1 0x631 s 8 FF 00 00 00 00 00 00 00 
	11:50:37:7292 Rx 1 0x630 s 8 E1 FF 02 00 40 00 5A D4 
	11:50:37:7294 Rx 1 0x631 s 8 FF 00 00 00 00 00 00 00 
	11:50:37:7393 Rx 1 0x630 s 8 E1 FF 02 00 40 00 5B 02 
	11:50:37:7396 Rx 1 0x631 s 8 FF 00 00 00 00 00 00 00 
	11:50:37:7495 Rx 1 0x630 s 8 E1 FF 02 00 40 00 5B 08 
	11:50:37:7497 Rx 1 0x631 s 8 FF 00 00 00 00 00 00 00 
	11:50:37:7595 Rx 1 0x630 s 6 E2 00 00 02 09 00 
	11:50:37:7597 Rx 1 0x631 s 8 FF 00 00 00 00 00 00 00 
	11:50:37:7698 Rx 1 0x630 s 8 E1 FF 04 00 40 00 BD 68 
	11:50:37:7700 Rx 1 0x631 s 8 FF 00 00 00 00 00 00 00 
	11:50:37:7804 Rx 1 0x630 s 8 E1 FF 01 00 40 00 BD 71 
	11:50:37:7809 Rx 1 0x631 s 8 FF 00 00 00 00 00 00 00 
	11:50:37:8087 Rx 1 0x630 s 6 E2 00 00 02 0A 00 
	11:50:37:8090 Rx 1 0x631 s 8 FF 00 00 00 00 00 00 00 
	11:50:37:8192 Rx 1 0x630 s 8 E1 FF 02 00 40 00 47 98 
	11:50:37:8194 Rx 1 0x631 s 8 FF 00 00 00 00 00 00 00 
	11:50:37:8293 Rx 1 0x630 s 8 E1 FF 02 00 40 00 46 F6 
	11:50:37:8296 Rx 1 0x631 s 8 FF 00 00 00 00 00 00 00 
	11:50:37:8394 Rx 1 0x630 s 8 E1 FF 02 00 40 00 5B C0 
	11:50:37:8397 Rx 1 0x631 s 8 FF 00 00 00 00 00 00 00 
	11:50:37:8496 Rx 1 0x630 s 6 E2 00 00 02 0B 00 
	11:50:37:8498 Rx 1 0x631 s 8 FF 00 00 00 00 00 00 00 
	11:50:37:8597 Rx 1 0x630 s 8 E1 FF 02 00 40 00 5C A4 
	11:50:37:8599 Rx 1 0x631 s 8 FF 00 00 00 00 00 00 00 
	11:50:37:8698 Rx 1 0x630 s 8 E1 FF 02 00 40 00 5C A8 
	11:50:37:8701 Rx 1 0x631 s 8 FF 00 00 00 00 00 00 00 
	11:50:37:8803 Rx 1 0x630 s 8 E1 FF 02 00 40 00 5C AE 
	11:50:37:8806 Rx 1 0x631 s 8 FF 00 00 00 00 00 00 00 
	11:50:37:9102 Rx 1 0x630 s 6 E2 00 00 02 0C 00 
	11:50:37:9105 Rx 1 0x631 s 8 FF 00 00 00 00 00 00 00 
	11:50:37:9204 Rx 1 0x630 s 8 E1 FF 02 00 40 00 5C B0 
	11:50:37:9207 Rx 1 0x631 s 8 FF 00 00 00 00 00 00 00 
	11:50:37:9306 Rx 1 0x630 s 8 E1 FF 02 00 40 00 47 3E 
	11:50:37:9308 Rx 1 0x631 s 8 FF 00 00 00 00 00 00 00 
	11:50:37:9407 Rx 1 0x630 s 8 E1 FF 02 00 40 00 5D 98 
	11:50:37:9409 Rx 1 0x631 s 8 FF 00 00 00 00 00 00 00 
	11:50:37:9507 Rx 1 0x630 s 6 E2 00 00 02 0D 00 
	11:50:37:9510 Rx 1 0x631 s 8 FF 00 00 00 00 00 00 00 
	11:50:37:9609 Rx 1 0x630 s 8 E1 FF 02 00 40 00 5C C2 
	11:50:37:9612 Rx 1 0x631 s 8 FF 00 00 00 00 00 00 00 
	11:50:37:9710 Rx 1 0x630 s 8 E1 FF 02 00 40 00 6A AA 
	11:50:37:9713 Rx 1 0x631 s 8 FF 00 00 00 00 00 00 00 
	11:50:37:9824 Rx 1 0x630 s 8 E1 FF 02 00 40 00 6A DA 
	11:50:37:9827 Rx 1 0x631 s 8 FF 00 00 00 00 00 00 00 
	11:50:38:0114 Rx 1 0x630 s 6 E2 00 00 02 0E 00 
	11:50:38:0116 Rx 1 0x631 s 8 FF 00 00 00 00 00 00 00 
	11:50:38:0216 Rx 1 0x630 s 8 E1 FF 02 00 40 00 C2 00 
	11:50:38:0219 Rx 1 0x631 s 8 FF 00 00 00 00 00 00 00 
	11:50:38:0318 Rx 1 0x630 s 8 E1 FF 02 00 40 00 C3 84 
	11:50:38:0320 Rx 1 0x631 s 8 FF 00 00 00 00 00 00 00 
	11:50:38:0419 Rx 1 0x630 s 8 E1 FF 02 00 40 00 C1 78 
	11:50:38:0421 Rx 1 0x631 s 8 FF 00 00 00 00 00 00 00 
	11:50:38:0519 Rx 1 0x630 s 6 E2 00 00 02 0F 00 
	11:50:38:0522 Rx 1 0x631 s 8 FF 00 00 00 00 00 00 00 
	11:50:38:0621 Rx 1 0x630 s 8 E1 FF 02 00 40 00 5C B6 
	11:50:38:0624 Rx 1 0x631 s 8 FF 00 00 00 00 00 00 00 
	11:50:38:0723 Rx 1 0x630 s 8 E1 FF 01 00 40 00 67 9D 
	11:50:38:0725 Rx 1 0x631 s 8 FF 00 00 00 00 00 00 00 
	11:50:38:0826 Rx 1 0x630 s 8 E1 FF 02 00 40 00 BE 32 
	11:50:38:0828 Rx 1 0x631 s 8 FF 00 00 00 00 00 00 00 
	11:50:38:1127 Rx 1 0x630 s 6 E2 00 00 02 10 00 
	11:50:38:1129 Rx 1 0x631 s 8 FF 00 00 00 00 00 00 00 
	11:50:38:1229 Rx 1 0x630 s 8 E1 FF 02 00 40 00 BE 0A 
	11:50:38:1232 Rx 1 0x631 s 8 FF 00 00 00 00 00 00 00 
	11:50:38:1331 Rx 1 0x630 s 8 E1 FF 02 00 40 00 4E 0E 
	11:50:38:1333 Rx 1 0x631 s 8 FF 00 00 00 00 00 00 00 
	11:50:38:1430 Rx 1 0x630 s 6 E2 00 00 02 11 00 
	11:50:38:1433 Rx 1 0x631 s 8 FF 00 00 00 00 00 00 00 
	11:50:38:1534 Rx 1 0x630 s 8 E1 FF 04 00 40 00 E1 64 
	11:50:38:1536 Rx 1 0x631 s 8 FF 00 00 00 00 00 00 00 
	11:50:38:1633 Rx 1 0x630 s 6 E2 00 00 02 12 00 
	11:50:38:1636 Rx 1 0x631 s 8 FF 00 00 00 00 00 00 00 
	11:50:38:1736 Rx 1 0x630 s 8 E1 FF 04 00 40 00 6E 20 
	11:50:38:1739 Rx 1 0x631 s 8 FF 00 00 00 00 00 00 00 
	11:50:38:1837 Rx 1 0x630 s 6 E2 00 00 02 13 00 
	11:50:38:1839 Rx 1 0x631 s 8 FF 00 00 00 00 00 00 00 
	11:50:38:2041 Rx 1 0x630 s 8 E1 FF 04 00 40 00 4E 48 
	11:50:38:2043 Rx 1 0x631 s 8 FF 00 00 00 00 00 00 00 
	11:50:38:2142 Rx 1 0x630 s 8 E1 FF 02 00 40 00 BC BE 
	11:50:38:2144 Rx 1 0x631 s 8 FF 00 00 00 00 00 00 00 
	11:50:38:2242 Rx 1 0x630 s 6 E2 00 00 02 14 00 
	11:50:38:2244 Rx 1 0x631 s 8 FF 00 00 00 00 00 00 00 
	11:50:38:2344 Rx 1 0x630 s 8 E1 FF 02 00 40 00 C1 A0 
	11:50:38:2347 Rx 1 0x631 s 8 FF 00 00 00 00 00 00 00 
	11:50:38:2446 Rx 1 0x630 s 8 E1 FF 02 00 40 00 C2 52 
	11:50:38:2448 Rx 1 0x631 s 8 FF 00 00 00 00 00 00 00 
	11:50:38:2546 Rx 1 0x630 s 6 E2 00 00 02 15 00 
	11:50:38:2548 Rx 1 0x631 s 8 FF 00 00 00 00 00 00 00 
	11:50:38:2649 Rx 1 0x630 s 8 E1 FF 04 00 40 00 42 10 
	11:50:38:2652 Rx 1 0x631 s 8 FF 00 00 00 00 00 00 00 
	11:50:38:2749 Rx 1 0x630 s 6 E2 00 00 02 16 00 
	11:50:38:2752 Rx 1 0x631 s 8 FF 00 00 00 00 00 00 00 
	11:50:38:2852 Rx 1 0x630 s 8 E1 FF 04 00 40 00 E2 50 
	11:50:38:2855 Rx 1 0x631 s 8 FF 00 00 00 00 00 00 00 
	11:50:38:3053 Rx 1 0x630 s 6 E2 00 00 02 17 00 
	11:50:38:3056 Rx 1 0x631 s 8 FF 00 00 00 00 00 00 00 
	11:50:38:3155 Rx 1 0x630 s 8 E1 FF 04 00 40 00 4C A0 
	11:50:38:3158 Rx 1 0x631 s 8 FF 00 00 00 00 00 00 00 
	11:50:38:3256 Rx 1 0x630 s 6 E2 00 00 02 18 00 
	11:50:38:3259 Rx 1 0x631 s 8 FF 00 00 00 00 00 00 00 
	11:50:38:3359 Rx 1 0x630 s 8 E1 FF 04 00 40 00 4C A4 
	11:50:38:3361 Rx 1 0x631 s 8 FF 00 00 00 00 00 00 00 
	11:50:38:3460 Rx 1 0x630 s 8 E1 FF 02 00 40 00 41 32 
	11:50:38:3463 Rx 1 0x631 s 8 FF 00 00 00 00 00 00 00 
	11:50:38:3560 Rx 1 0x630 s 6 E2 00 00 02 19 00 
	11:50:38:3562 Rx 1 0x631 s 8 FF 00 00 00 00 00 00 00 
	11:50:38:3678 Rx 1 0x630 s 8 E1 FF 01 00 40 00 4D F5 
	11:50:38:3681 Rx 1 0x631 s 8 FF 00 00 00 00 00 00 00 
	11:50:38:3779 Rx 1 0x630 s 8 E1 FF 01 00 40 00 4E 27 
	11:50:38:3781 Rx 1 0x631 s 8 FF 00 00 00 00 00 00 00 
	11:50:38:3880 Rx 1 0x630 s 8 E1 FF 01 00 40 00 4E 10 
	11:50:38:3883 Rx 1 0x631 s 8 FF 00 00 00 00 00 00 00 
	11:50:38:4082 Rx 1 0x630 s 8 E1 FF 02 00 40 00 6A DC 
	11:50:38:4085 Rx 1 0x631 s 8 FF 00 00 00 00 00 00 00 
	11:50:38:4182 Rx 1 0x630 s 6 E2 00 00 02 1A 00 
	11:50:38:4185 Rx 1 0x631 s 8 FF 00 00 00 00 00 00 00 
	11:50:38:4284 Rx 1 0x630 s 8 E1 FF 02 00 40 00 6A D8 
	11:50:38:4287 Rx 1 0x631 s 8 FF 00 00 00 00 00 00 00 
	11:50:38:4386 Rx 1 0x630 s 8 E1 FF 02 00 40 00 C4 5E 
	11:50:38:4388 Rx 1 0x631 s 8 FF 00 00 00 00 00 00 00 
	11:50:38:4487 Rx 1 0x630 s 8 E1 FF 02 00 40 00 C4 30 
	11:50:38:4490 Rx 1 0x631 s 8 FF 00 00 00 00 00 00 00 
	11:50:38:4587 Rx 1 0x630 s 6 E2 00 00 02 1B 00 
	11:50:38:4589 Rx 1 0x631 s 8 FF 00 00 00 00 00 00 00 
	11:50:38:4691 Rx 1 0x630 s 8 E1 FF 02 00 40 00 C4 92 
	11:50:38:4693 Rx 1 0x631 s 8 FF 00 00 00 00 00 00 00 
	11:50:38:4791 Rx 1 0x630 s 8 E1 FF 02 00 40 00 93 BA 
	11:50:38:4794 Rx 1 0x631 s 8 FF 00 00 00 00 00 00 00 
	11:50:38:4891 Rx 1 0x630 s 6 E2 00 00 02 1C 00 
	11:50:38:4894 Rx 1 0x631 s 8 FF 00 00 00 00 00 00 00 
	11:50:38:5095 Rx 1 0x630 s 8 E1 FF 04 00 40 00 4C D0 
	11:50:38:5097 Rx 1 0x631 s 8 FF 00 00 00 00 00 00 00 
	11:50:38:5194 Rx 1 0x630 s 6 E2 00 00 02 1D 00 
	11:50:38:5197 Rx 1 0x631 s 8 FF 00 00 00 00 00 00 00 
	11:50:38:5297 Rx 1 0x630 s 8 E1 FF 04 00 40 00 BC F0 
	11:50:38:5305 Rx 1 0x631 s 8 FF 00 00 00 00 00 00 00 
	11:50:38:5398 Rx 1 0x630 s 8 E1 FF 01 00 40 00 C5 BF 
	11:50:38:5404 Rx 1 0x631 s 8 FF 00 00 00 00 00 00 00 
	11:50:38:5500 Rx 1 0x630 s 8 E1 FF 01 00 40 00 C5 C2 
	11:50:38:5502 Rx 1 0x631 s 8 FF 00 00 00 00 00 00 00 
	11:50:38:5601 Rx 1 0x630 s 8 E0 00 00 00 00 00 64 05 
	11:50:38:5604 Rx 1 0x631 s 8 FF 00 00 00 00 00 00 00 
	11:50:38:5702 Rx 1 0x630 s 8 E0 00 00 01 00 01 0A 06 
	11:50:38:5705 Rx 1 0x631 s 8 FF 00 00 00 00 00 00 00 
	11:50:38:5804 Rx 1 0x630 s 8 E0 00 00 02 00 02 01 07 
	11:50:38:5807 Rx 1 0x631 s 8 FF 00 00 00 00 00 00 00 
	11:50:38:6104 Rx 1 0x630 s 4 DE 02 00 00 
	11:50:38:6107 Rx 1 0x631 s 8 FF 00 00 00 00 00 00 00 
	11:50:38:6307 Rx 1 0x630 s 4 DE 02 00 01 
	11:50:38:6309 Rx 1 0x631 s 8 FF 20 00 00 00 00 00 00 
	11:50:38:6409 Rx 1 0x630 s 4 DE 02 00 02 
	11:50:38:6411 Rx 1 0x631 s 8 FF 40 00 00 00 00 00 00 
	11:50:38:6509 Rx 1 0x630 s 2 DD 01 
	11:50:38:6512 Rx 1 0x631 s 8 FF 00 00 00 00 00 00 00 
	 11:52:40:4464 Rx 1 0x630 s 1 FE 
	 11:52:40:4467 Rx 1 0x631 s 8 FF 00 00 00 00 00 00 00 
	 11:52:45:5031 Rx 1 0x631 s 8 FD 07 00 00 00 00 00 00 
	 11:52:46:2876 Rx 1 0x630 s 1 FE 
	 11:52:46:3080 Rx 1 0x630 s 2 FF 00 
	 11:52:46:3083 Rx 1 0x631 s 8 FF 0D C1 08 00 08 01 01 
	 11:52:46:3181 Rx 1 0x630 s 1 D6 
	 11:52:46:3185 Rx 1 0x631 s 8 FF 00 00 00 00 00 00 00 
	 11:52:46:3285 Rx 1 0x630 s 4 D5 00 00 03 
	 11:52:46:3287 Rx 1 0x631 s 8 FF 00 00 00 00 00 00 00 
	 11:52:46:3388 Rx 1 0x630 s 5 D4 00 00 00 1F 
	 11:52:46:3390 Rx 1 0x631 s 8 FF 00 00 00 00 00 00 00 
	 11:52:46:3489 Rx 1 0x630 s 5 D4 00 00 01 1F 
	 11:52:46:3491 Rx 1 0x631 s 8 FF 00 00 00 00 00 00 00 
